#  HZ   S   RI   R     1.00 
! Rohde & Schwarz ZVA67 4Ports - Version 4.11 - 1305.7002k04 SN: 101032
! Date: 2023-06-01 16:39:02
! Measurement: a1d2/b1d2sam 
! 
 1.000000000000000E8     1.443249440209025E-2   2.294692206117827E-2  
 1.500000000000000E8     1.428743559031843E-1  -1.198381704366526E-1  
 2.000000000000000E8    -8.349057098974567E-2  -1.090608795383953E-1  
 2.500000000000000E8     5.544101198038521E-2  -9.414068299764556E-3  
 3.000000000000000E8    -1.125411036112345E-2  -2.064538092498970E-1  
 3.500000000000000E8    -1.630634196344368E-1  -3.986898271741155E-3  
 4.000000000000000E8    -4.266844262034248E-3  -2.418591830121428E-2  
 4.500000000000000E8    -1.180118281494128E-1  -4.011031467255315E-2  
 5.000000000000000E8    -3.970109472022648E-2   1.118748702331297E-1  
 5.500000000000000E8     6.159289842070692E-2  -4.921405989315374E-2  
 6.000000000000000E8    -1.435666118272685E-1  -4.390811401508738E-2  
 6.500000000000000E8    -2.102852369717843E-2   1.013572121938359E-1  
 7.000000000000000E8    -5.257294476228425E-2  -5.167220949237590E-2  
 7.500000000000000E8    -1.316252071582303E-1   1.541880461270985E-1  
 8.000000000000000E8     1.210689639928631E-1   1.343185563817184E-1  
 8.500000000000000E8     1.594964022600606E-2  -2.744726239781927E-2  
 9.000000000000000E8     4.112734714526666E-3   1.242407229911369E-1  
 9.500000000000000E8     1.444994463788086E-1   2.171726551400230E-3  
 1.000000000000000E9    -2.763152804828330E-2  -4.084870015222483E-2  
 1.050000000000000E9     5.705073686092483E-2   9.447141433937739E-2  
 1.100000000000000E9     1.034144190262776E-1  -6.886495384821599E-2  
 1.150000000000000E9    -3.080729277909232E-2  -3.362556012959449E-3  
 1.200000000000000E9     1.242092585023936E-1   1.924151518828847E-2  
 1.250000000000000E9     2.009724558087918E-2  -1.466494571068269E-1  
 1.300000000000000E9    -6.206250514405774E-2   2.445086219165625E-2  
 1.350000000000000E9     1.130062078700301E-1  -3.060419473219569E-2  
 1.400000000000000E9    -5.546774570776621E-2  -1.451223649591531E-1  
 1.450000000000000E9    -6.443254434620994E-2   4.814492054497464E-2  
 1.500000000000000E9     5.792739165602843E-2  -6.619220734061442E-2  
 1.550000000000000E9    -1.313994079984918E-1  -6.684111791964531E-2  
 1.600000000000000E9    -2.098425808047029E-2   9.858713928905109E-2  
 1.650000000000000E9     1.161625342219057E-2  -6.686613313634453E-2  
 1.700000000000000E9    -1.246616732493613E-1   5.952449359900933E-2  
 1.750000000000000E9     9.550178349352927E-2   1.070653017141042E-1  
 1.800000000000000E9     3.392471784676241E-2  -9.190292761663710E-2  
 1.850000000000000E9    -5.377666799670241E-2   4.147258865652861E-2  
 1.900000000000000E9     8.963861270457528E-2  -1.787209674803522E-2  
 1.950000000000000E9    -8.799257496102297E-2  -7.034315577400874E-2  
 2.000000000000000E9     3.152996889742004E-3   1.100625538082410E-1  
 2.050000000000000E9     1.277311224730038E-1  -1.037124761770854E-1  
 2.100000000000000E9    -1.682000724525349E-1  -1.173536193889946E-1  
 2.150000000000000E9    -3.796670849440548E-2   1.295926941208576E-1  
 2.200000000000000E9     2.854141635314500E-2  -7.293123095880358E-2  
 2.250000000000000E9    -1.650020500076780E-1   3.661860157540712E-3  
 2.300000000000000E9    -2.662225699564988E-2   1.227006683343028E-1  
 2.350000000000000E9    -3.368772121613452E-2   6.449945174658903E-2  
 2.400000000000000E9     5.479084463598790E-2   1.753591052046446E-1  
 2.450000000000000E9     1.785581449551895E-1  -3.921618137746377E-2  
 2.500000000000000E9    -1.256471164481478E-1  -1.094848171403172E-1  
 2.550000000000000E9    -5.078758751068159E-2   2.021556060112707E-1  
 2.600000000000000E9     1.315639484775820E-1   2.437854572284560E-2  
 2.650000000000000E9    -4.199491149623106E-2  -6.688528075293560E-3  
 2.700000000000000E9     1.410357788163374E-2   9.524324199678638E-2  
 2.750000000000000E9    -7.947348572347268E-3   7.452293444686952E-3  
 2.800000000000000E9    -6.884526474076713E-3   1.904257438795174E-1  
 2.850000000000000E9     2.262284564428777E-1   1.199025413868645E-1  
 2.900000000000000E9     1.136144247353232E-1  -6.695889974492898E-2  
 2.950000000000000E9     4.687494294809275E-2   5.456948372860140E-2  
 3.000000000000000E9     1.523236671200682E-1  -1.678758792857221E-2  
 3.050000000000000E9     7.218893315954225E-2  -4.813753091288890E-2  
 3.100000000000000E9     1.443212512803049E-1  -5.473691666631141E-2  
 3.150000000000000E9    -1.318050432433843E-2  -2.096882412382295E-1  
 3.200000000000000E9    -1.482500310818306E-1   8.152535090266749E-2  
 3.250000000000000E9     1.849322292894403E-1   6.555806748541022E-2  
 3.300000000000000E9     5.613715182763974E-2  -2.345762845491937E-1  
 3.350000000000000E9    -1.997271126366591E-1  -2.285167274822582E-2  
 3.400000000000000E9     2.676175622006487E-2   9.491075060988456E-2  
 3.450000000000000E9    -1.957854702156506E-3  -1.473602436370631E-2  
 3.500000000000000E9     1.122575547388519E-2   5.917459224055487E-2  
 3.550000000000000E9     5.166913869942341E-2  -5.071681017874993E-2  
 3.600000000000000E9    -9.754364088577111E-2   3.141507243288452E-2  
 3.650000000000000E9     9.564512916541880E-2   1.542411905007711E-1  
 3.700000000000000E9     1.770266853774808E-1  -6.640531832472026E-2  
 3.750000000000000E9    -1.597970657133191E-2  -8.745490684185037E-2  
 3.800000000000000E9     3.597645365286638E-2   1.375908532513686E-2  
 3.850000000000000E9     4.962589705198952E-2  -6.162958445465765E-2  
 3.900000000000000E9     5.074663374275972E-2  -4.440829706813203E-2  
 3.950000000000000E9     4.607673378613254E-2  -1.512899657894578E-1  
 4.000000000000000E9    -1.467867471760022E-1  -7.945643414625077E-2  
 4.050000000000000E9     5.777300104924105E-3   6.968658382865380E-2  
 4.100000000000000E9     8.245524940941200E-2  -1.522277154666784E-1  
 4.150000000000000E9    -1.765530658621239E-1  -1.684289524819284E-1  
 4.200000000000000E9    -1.458494047312705E-1   8.356529758654571E-2  
 4.250000000000000E9    -4.182511343319174E-2   4.122046050873106E-2  
 4.300000000000000E9    -5.230524130534387E-2   3.913380191353022E-2  
 4.350000000000000E9    -9.041494081397542E-3  -1.356491102130508E-2  
 4.400000000000000E9    -1.403230432395886E-1  -1.155439431858468E-2  
 4.450000000000000E9    -5.731667002911575E-2   1.608737805158257E-1  
 4.500000000000000E9     6.000271591326918E-2   1.448199463808475E-2  
 4.550000000000000E9    -1.408820345226081E-1  -3.155185978931376E-2  
 4.600000000000000E9    -9.572780904130288E-2   2.164109575635437E-1  
 4.650000000000000E9     1.271930079159687E-1   1.495130496894492E-1  
 4.700000000000000E9     9.452032472596746E-2   3.769865012170927E-2  
 4.750000000000000E9     4.874766748765341E-2   1.350649819608003E-2  
 4.800000000000000E9    -1.088542439127163E-2   5.033180652444522E-2  
 4.850000000000000E9     1.083674286936786E-1   1.242516271380916E-1  
 4.900000000000000E9     1.951583796127248E-1  -5.240202843303120E-2  
 4.950000000000000E9     1.106767071555568E-3  -1.461367113873099E-1  
 5.000000000000000E9    -7.736675089650956E-2   1.291544712807566E-2  
 5.050000000000000E9    -2.979627767260233E-5   5.323906552906572E-2  
 5.100000000000000E9     3.810634210497857E-2   6.294982691612611E-2  
 5.150000000000000E9     8.675895550346825E-2  -1.351963541616365E-2  
 5.200000000000000E9    -6.350811139440717E-2  -4.906976631767977E-2  
 5.250000000000000E9    -2.460567735130474E-2   1.623395508361316E-1  
 5.300000000000000E9     1.797720646008303E-1   8.075357155418635E-2  
 5.350000000000000E9     1.020522765009428E-1  -5.830508566556517E-2  
 5.400000000000000E9     4.577282262065377E-2  -1.165344306738395E-2  
 5.450000000000000E9     4.469516179642681E-2  -4.875429567188254E-2  
 5.500000000000000E9    -1.010463956297737E-2   6.875426291675580E-3  
 5.550000000000000E9     9.091777189284057E-2   1.295934554706592E-2  
 5.600000000000000E9     1.321601588874382E-2  -9.864256591971519E-2  
 5.650000000000000E9    -5.019679913770260E-2   6.982966811520583E-2  
 5.700000000000000E9     1.491478184911256E-1   3.863663247365648E-2  
 5.750000000000000E9     7.743092029165283E-2  -1.182606257430358E-1  
 5.800000000000000E9    -1.284586930007554E-2  -2.455199085613890E-2  
 5.850000000000000E9     6.563607671584278E-2  -3.012406829134661E-2  
 5.900000000000000E9     2.667395251013948E-2  -6.091887745854008E-2  
 5.950000000000000E9     8.630574282027813E-2  -4.283365225729582E-2  
 6.000000000000000E9     6.121849236862054E-2  -1.899011048275859E-1  
 6.050000000000000E9    -1.509875111708476E-1  -9.543088143603358E-2  
 6.100000000000000E9    -1.631384686360998E-2   3.654009296119349E-2  
 6.150000000000000E9     1.259034902263474E-2  -1.054717433392706E-1  
 6.200000000000000E9    -1.025048307401641E-1  -9.022595550769787E-2  
 6.250000000000000E9    -8.258277822271433E-2  -2.583558352807829E-2  
 6.300000000000000E9    -1.409596378775003E-1   1.559005108612994E-2  
 6.350000000000000E9    -5.671730143570051E-2   1.312868014909890E-1  
 6.400000000000000E9     4.676985117370677E-2   1.830968141902518E-2  
 6.450000000000000E9    -9.452781982107671E-2   6.252239480873467E-3  
 6.500000000000000E9     2.009301896463346E-2   1.619802057354378E-1  
 6.550000000000000E9     1.622776252505464E-1   9.455283480683082E-3  
 6.600000000000000E9     4.895897708305606E-2  -1.272370114777457E-1  
 6.650000000000000E9    -9.290692162997423E-2  -8.213073089316028E-2  
 6.700000000000000E9    -1.215085917777782E-1   7.048771819048057E-2  
 6.750000000000000E9     4.609593964789222E-2   1.389480106747795E-1  
 6.800000000000000E9     1.255681793440665E-1  -6.462714271479907E-2  
 6.850000000000000E9    -1.226860312903064E-1  -1.178513863044412E-1  
 6.900000000000000E9    -9.882422778605755E-2   1.503476392573648E-1  
 6.950000000000000E9     1.120740008022494E-1   7.940143657067844E-2  
 7.000000000000000E9     5.479704288261644E-2  -7.233908683849104E-2  
 7.050000000000000E9    -4.675160562284159E-2  -5.813705868134293E-2  
 7.100000000000000E9    -7.897801684547892E-2   9.961494765852588E-3  
 7.150000000000000E9    -2.575700594370574E-2   6.643298164923386E-2  
 7.200000000000000E9     2.146763923150462E-2  -1.814070862316865E-2  
 7.250000000000000E9    -1.314856048650188E-1  -5.375447187671616E-2  
 7.300000000000000E9    -1.273558244484034E-1   1.932190684993022E-1  
 7.350000000000000E9     1.151953611088531E-1   1.839964950066500E-1  
 7.400000000000000E9     1.053594639635209E-1   2.638141604419568E-2  
 7.450000000000000E9    -7.864062435303779E-3   2.291146500473091E-2  
 7.500000000000000E9    -9.238572192389929E-3   1.350420158039642E-1  
 7.550000000000000E9     1.621836698516861E-1   2.021211340425984E-1  
 7.600000000000000E9     3.356075272789804E-1   4.306880686243779E-2  
 7.650000000000000E9     2.237664111915321E-1  -1.999676421962438E-1  
 7.700000000000000E9    -3.280904511065171E-2  -1.403399016922550E-1  
 7.750000000000000E9     4.657583238694543E-2  -1.355202690748722E-2  
 7.800000000000000E9     9.337418261550430E-2  -1.296302006555454E-1  
 7.850000000000000E9    -2.193717530236322E-2  -1.805927298211255E-1  
 7.900000000000000E9    -1.508042184582095E-1  -9.370639176231499E-2  
 7.950000000000000E9    -1.234943646961028E-1   1.123710476956693E-1  
 8.000000000000000E9     5.903736491558426E-2   1.006722459219210E-1  
 8.050000000000000E9     1.511075240221548E-2  -3.872428467595537E-2  
 8.100000000000000E9    -8.223390844636309E-2   8.772619770293397E-2  
 8.150000000000000E9     1.306713574690601E-1   1.480111311594479E-1  
 8.200000000000000E9     1.836224811011876E-1  -4.895994255552969E-2  
 8.250000000000000E9     5.326242970581484E-2  -1.030421420146560E-1  
 8.300000000000000E9    -4.693946748974580E-3  -5.449776704896444E-2  
 8.350000000000000E9    -2.340664056858050E-2   3.335370617612205E-3  
 8.400000000000000E9     7.160122098372293E-2   4.754515193809113E-2  
 8.450000000000000E9     1.346420806126933E-1  -7.513529110341957E-2  
 8.500000000000000E9    -1.071522906661441E-2  -1.319289433223312E-1  
 8.550000000000000E9    -2.018235125118607E-2   1.351465674041503E-3  
 8.600000000000000E9     8.886207052657973E-2  -5.907627547079242E-2  
 8.650000000000000E9     3.835632015724660E-2  -1.632816986569130E-1  
 8.700000000000000E9    -6.086079118010992E-2  -1.567527325593300E-1  
 8.750000000000000E9    -1.361303622367877E-1  -7.150450717809760E-2  
 8.800000000000000E9    -8.919452636130454E-2   2.362089038601277E-2  
 8.850000000000000E9    -1.005462473787348E-2  -3.877353855196852E-2  
 8.900000000000000E9    -1.132641410172075E-1  -1.053038454012432E-1  
 8.950000000000000E9    -1.652179194380954E-1   6.478123979637906E-2  
 9.000000000000000E9    -1.635616359116738E-2   8.517368327631421E-2  
 9.050000000000000E9    -4.604510773760017E-2  -1.923300388844522E-2  
 9.100000000000000E9    -1.316369974921895E-1   3.566866218820902E-2  
 9.150000000000000E9    -6.922555643450211E-2   1.473809805034169E-1  
 9.200000000000000E9     5.192698046971819E-2   1.672834893249632E-1  
 9.250000000000000E9     1.544980437259366E-1   6.938972541780532E-2  
 9.300000000000000E9     8.457311277963385E-2  -8.429071150881530E-2  
 9.350000000000000E9    -4.869592901824953E-2  -2.232516759182758E-2  
 9.400000000000000E9     5.111417226041315E-2   2.270727515364710E-2  
 9.450000000000000E9     4.834212346726813E-2  -1.268286902661268E-1  
 9.500000000000000E9    -1.270142813503614E-1  -1.521833979894925E-1  
 9.550000000000000E9    -2.188453471083148E-1   2.965451485367632E-2  
 9.600000000000000E9    -1.134560635338023E-1   2.002530123796688E-1  
 9.650000000000000E9     2.845630657375182E-2   2.008970723644383E-1  
 9.700000000000000E9     4.625435318103168E-2   7.423893232583016E-2  
 9.750000000000000E9    -7.394799562828637E-2   8.892603404271667E-2  
 9.800000000000000E9     3.516651462412965E-2   2.284902294088258E-1  
 9.850000000000000E9     1.797751671883673E-1   1.330969208669551E-1  
 9.900000000000000E9     1.335304658044512E-1   1.956764497630601E-2  
 9.950000000000000E9     4.298551635501591E-2   5.439712277984952E-4  
 1.000000000000000E10   -5.692703474862115E-3   8.255280392723187E-2  
 1.005000000000000E10    1.135698555555432E-1   1.675170461533695E-1  
 1.010000000000000E10    2.306558663989586E-1   5.507077281689559E-2  
 1.015000000000000E10    9.813153797297730E-2  -8.342745770422559E-2  
 1.020000000000000E10    2.081249327812022E-2   7.494484850711243E-2  
 1.025000000000000E10    2.303607638313577E-1   7.003294022258771E-2  
 1.030000000000000E10    2.482566719627889E-1  -1.172106732154766E-1  
 1.035000000000000E10    9.813409266969012E-2  -1.748040417106464E-1  
 1.040000000000000E10   -2.259944348612225E-2  -8.876591386197820E-2  
 1.045000000000000E10    2.760222395570178E-2   1.425771464291221E-2  
 1.050000000000000E10    1.494540834956391E-1  -3.642049216247199E-2  
 1.055000000000000E10    1.295244762142562E-1  -1.798397094724726E-1  
 1.060000000000000E10   -5.275291760814303E-2  -1.818002305042783E-1  
 1.065000000000000E10   -7.321723954615445E-2  -1.721620369225324E-2  
 1.070000000000000E10    4.479400319234708E-2  -2.632064660519057E-2  
 1.075000000000000E10    3.546840739393888E-2  -1.321240628378663E-1  
 1.080000000000000E10   -1.006396547237061E-1  -1.224100542240705E-1  
 1.085000000000000E10   -1.018726370301886E-1   4.823257028692664E-2  
 1.090000000000000E10    6.731973458262054E-2   4.410303586519007E-2  
 1.095000000000000E10    8.879799488015960E-2  -1.261179925377771E-1  
 1.100000000000000E10   -8.346810437141781E-2  -1.641879706294135E-1  
 1.105000000000000E10   -1.354655772275007E-1  -1.031422002358932E-2  
 1.110000000000000E10   -5.795643249412192E-2   2.173128076970694E-2  
 1.115000000000000E10   -4.902882968247073E-2  -7.575173598724871E-3  
 1.120000000000000E10   -5.820134371710758E-2   6.940554188240232E-3  
 1.125000000000000E10   -3.781983666894640E-2   4.420278394115272E-2  
 1.130000000000000E10    3.451415867033955E-2   3.927494766257857E-2  
 1.135000000000000E10    6.244119305395042E-2  -7.647224444716763E-2  
 1.140000000000000E10   -7.666415022991520E-2  -1.452335669903100E-1  
 1.145000000000000E10   -1.638091536369191E-1   1.085220342926466E-2  
 1.150000000000000E10   -4.723732959817981E-2   6.169525749061938E-2  
 1.155000000000000E10   -5.059358983178326E-2  -4.399533331274050E-2  
 1.160000000000000E10   -1.831058944458467E-1  -1.856173771948525E-2  
 1.165000000000000E10   -1.746753645027587E-1   1.660448187711946E-1  
 1.170000000000000E10   -1.587176969587371E-2   2.272640977483142E-1  
 1.175000000000000E10    7.553074278903807E-2   1.323118887910873E-1  
 1.180000000000000E10    2.587503832700688E-2   2.037799374892469E-2  
 1.185000000000000E10   -6.828970631503735E-2   6.826481885910098E-2  
 1.190000000000000E10   -2.112807329376367E-3   1.661248562087067E-1  
 1.195000000000000E10    7.513385530260967E-2   1.235991049164261E-1  
 1.200000000000000E10    2.822267894535439E-2   7.442801428839024E-2  
 1.205000000000000E10    2.385565967317605E-2   1.619866651828433E-1  
 1.210000000000000E10    1.926106601735170E-1   1.769177813834365E-1  
 1.215000000000000E10    2.810737404075199E-1   3.948264509205773E-2  
 1.220000000000000E10    1.823780089598868E-1  -9.610715795750566E-2  
 1.225000000000000E10    3.485067912465289E-2  -4.802762523194651E-2  
 1.230000000000000E10    1.172500656635647E-1   3.058028423411171E-2  
 1.235000000000000E10    1.846143283729080E-1  -8.952291492403042E-2  
 1.240000000000000E10    3.757715485720762E-2  -1.710921257667308E-1  
 1.245000000000000E10   -7.553984321757742E-2  -2.836299576874344E-2  
 1.250000000000000E10    3.062042972677785E-2   7.414054888277787E-2  
 1.255000000000000E10    1.332476524819043E-1   3.226432984627434E-2  
 1.260000000000000E10    1.534638719158123E-1  -6.960483868148941E-2  
 1.265000000000000E10    3.868066145485023E-2  -1.395216105386811E-1  
 1.270000000000000E10   -3.711814958528130E-2  -2.131385780052489E-2  
 1.275000000000000E10    8.810265420065727E-2   3.936223418184710E-2  
 1.280000000000000E10    1.339381362921289E-1  -9.183048867543237E-2  
 1.285000000000000E10    1.611420018484946E-3  -1.214519760635895E-1  
 1.290000000000000E10   -6.331768576869073E-3  -1.269460347703162E-2  
 1.295000000000000E10    9.161846705376404E-2  -5.141910863375585E-3  
 1.300000000000000E10    1.427069354819821E-1  -9.177868790330844E-2  
 1.305000000000000E10    9.082629044842072E-2  -2.016848499505108E-1  
 1.310000000000000E10   -3.984245442580936E-2  -2.000359720811872E-1  
 1.315000000000000E10   -5.665876457408590E-2  -1.019786982290152E-1  
 1.320000000000000E10   -2.076235014116863E-2  -1.441420243280071E-1  
 1.325000000000000E10   -1.219291601524060E-1  -1.750643759606783E-1  
 1.330000000000000E10   -1.708058303489544E-1  -7.649015121563570E-2  
 1.335000000000000E10   -1.315752986489581E-1  -2.336772218923415E-2  
 1.340000000000000E10   -1.233547117187890E-1  -4.365600068944371E-3  
 1.345000000000000E10   -9.904483825010282E-2   9.431354975573932E-3  
 1.350000000000000E10   -1.112434588379748E-1  -1.083398624452001E-2  
 1.355000000000000E10   -1.420207216435875E-1   4.377515090730456E-2  
 1.360000000000000E10   -8.374782972249939E-2   8.772840691160196E-2  
 1.365000000000000E10   -6.411853692507225E-2   5.274708233644156E-2  
 1.370000000000000E10   -9.576685221739707E-2   8.590193819381027E-2  
 1.375000000000000E10   -3.126506397156154E-2   1.453866661984528E-1  
 1.380000000000000E10    4.839346888729185E-2   9.643792403323624E-2  
 1.385000000000000E10    2.564399907091482E-2   2.695979399154463E-2  
 1.390000000000000E10   -2.947981870714404E-2   4.148220195252175E-2  
 1.395000000000000E10    2.762411277427950E-3   9.652465493187551E-2  
 1.400000000000000E10    7.534858850242139E-2   6.061925332392371E-2  
