#  HZ   S   RI   R     1.00 
! Rohde & Schwarz ZVA67 4Ports - Version 4.11 - 1305.7002k04 SN: 101032
! Date: 2023-06-01 16:38:51
! Measurement: a2d1/b2d1sam 
! 
 1.000000000000000E8    -4.624456813195956E-2  -7.728382149120658E-2  
 1.500000000000000E8     8.306070746452597E-2   4.495521106446140E-2  
 2.000000000000000E8     1.513203204879000E-1  -1.740678210984029E-1  
 2.500000000000000E8    -8.882545283580029E-2  -2.173519347275942E-1  
 3.000000000000000E8    -1.286052665543077E-1   2.574852462931126E-2  
 3.500000000000000E8     5.909309567540239E-2  -1.873983151792810E-2  
 4.000000000000000E8    -7.105542949354989E-2  -1.810888374015960E-1  
 4.500000000000000E8    -1.967725593031586E-1   2.103971261986127E-2  
 5.000000000000000E8    -1.661781441309453E-2   1.306158341611135E-1  
 5.500000000000000E8     5.651789698002089E-2  -3.283631106436540E-2  
 6.000000000000000E8    -1.135928822905215E-1  -1.055149338475638E-1  
 6.500000000000000E8    -1.586045233878979E-1   1.106687451795191E-1  
 7.000000000000000E8     4.298947479352980E-2   1.255667322538687E-1  
 7.500000000000000E8     4.193075621733294E-3  -2.212704600935247E-2  
 8.000000000000000E8    -1.078119282479642E-1   8.669082194160793E-2  
 8.500000000000000E8     5.896933754277268E-2   1.982413459172935E-1  
 9.000000000000000E8     1.858265260535416E-1   2.158388897285438E-2  
 9.500000000000000E8     3.256025486581474E-2  -9.668752557065366E-2  
 1.000000000000000E9    -4.612852842778716E-2   4.217237012136633E-2  
 1.050000000000000E9     9.642781172191883E-2   7.152166675344134E-2  
 1.100000000000000E9     1.027240170481712E-1  -7.937636511240291E-2  
 1.150000000000000E9    -4.362726506222033E-2  -6.590709915460655E-2  
 1.200000000000000E9     1.936470510504306E-3   7.096864804600789E-2  
 1.250000000000000E9     1.333451552408688E-1  -1.887210000502100E-2  
 1.300000000000000E9     2.291560489828803E-2  -1.493175671546649E-1  
 1.350000000000000E9    -9.956007277383772E-2  -4.738369281557400E-2  
 1.400000000000000E9     1.070481708712115E-3   5.517009719795834E-2  
 1.450000000000000E9     6.484166004016334E-2  -6.449108009261487E-2  
 1.500000000000000E9    -7.760696137166480E-2  -9.389477541122303E-2  
 1.550000000000000E9    -8.927890322889379E-2   5.375054090746462E-2  
 1.600000000000000E9     5.852541428946876E-2   3.956905975223816E-2  
 1.650000000000000E9    -5.216523011096673E-3  -1.041667112723238E-1  
 1.700000000000000E9    -1.493343980730054E-1   1.378326947737366E-2  
 1.750000000000000E9    -3.752490611849432E-3   1.671451344577562E-1  
 1.800000000000000E9     1.623712007857072E-1   1.102515558201441E-2  
 1.850000000000000E9    -1.624400196181809E-3  -1.572904992342816E-1  
 1.900000000000000E9    -1.461490522886202E-1   2.142753461246213E-2  
 1.950000000000000E9     4.484781459867679E-2   1.264334296755215E-1  
 2.000000000000000E9     1.204056032050991E-1  -7.828270440274227E-2  
 2.050000000000000E9    -1.047745241464148E-1  -1.378679875182202E-1  
 2.100000000000000E9    -1.395978463870554E-1   1.113257014698941E-1  
 2.150000000000000E9     1.074660217303078E-1   1.085347450441562E-1  
 2.200000000000000E9     7.272672007831631E-2  -1.259723113432376E-1  
 2.250000000000000E9    -1.695738619263493E-1  -7.311660315539179E-2  
 2.300000000000000E9    -9.216476544493800E-2   1.832300860784917E-1  
 2.350000000000000E9     1.410584409572362E-1   9.384961322623585E-2  
 2.400000000000000E9     5.961554294451299E-2  -9.467277638004018E-2  
 2.450000000000000E9    -1.042401913785647E-1  -2.260329415405639E-2  
 2.500000000000000E9    -1.767248354183511E-2   1.169117393936554E-1  
 2.550000000000000E9     8.132347970529925E-2   1.880905846076981E-2  
 2.600000000000000E9    -9.008088080851203E-3  -4.001228397722467E-2  
 2.650000000000000E9    -5.494136602001722E-2   3.140617902622183E-2  
 2.700000000000000E9    -6.826397923840083E-3   5.386148088736412E-2  
 2.750000000000000E9    -3.253565218990766E-2   5.061481219029461E-2  
 2.800000000000000E9     1.638018713939616E-3   1.580747733536336E-1  
 2.850000000000000E9     1.576236212629848E-1   1.484180314951558E-1  
 2.900000000000000E9     1.826444354291459E-1  -3.047436626299791E-2  
 2.950000000000000E9     2.238452117594665E-2  -6.510386655829313E-2  
 3.000000000000000E9     4.842513827127591E-2   5.887985168369743E-2  
 3.050000000000000E9     1.762831122705028E-1  -2.229133797121060E-2  
 3.100000000000000E9     5.468737559787582E-2  -1.919403695386352E-1  
 3.150000000000000E9    -1.597701814077742E-1  -3.627850379398134E-2  
 3.200000000000000E9     2.332656152061175E-2   1.414436439912456E-1  
 3.250000000000000E9     1.661181489867508E-1  -4.374961489068484E-2  
 3.300000000000000E9    -2.951615910655727E-2  -1.893535031803410E-1  
 3.350000000000000E9    -1.849869524533928E-1   4.836155704544623E-2  
 3.400000000000000E9     7.091228263840047E-2   1.702061967313047E-1  
 3.450000000000000E9     1.622047658787000E-1  -5.837142730263955E-2  
 3.500000000000000E9    -5.079854617056683E-2  -1.494517686550326E-1  
 3.550000000000000E9    -1.348662762113548E-1   7.675395416611823E-2  
 3.600000000000000E9     8.431737735160634E-2   1.281326676696263E-1  
 3.650000000000000E9     1.100573294632330E-1  -4.488503907853186E-2  
 3.700000000000000E9    -3.786535646541236E-2  -4.840445179818492E-2  
 3.750000000000000E9     7.054383807692327E-3   1.021591315906989E-1  
 3.800000000000000E9     1.756897072226639E-1   5.763420181492846E-3  
 3.850000000000000E9     1.045707282147389E-1  -1.622794409432334E-1  
 3.900000000000000E9    -5.603121440849547E-2  -1.278506416095264E-1  
 3.950000000000000E9    -4.131370495116966E-2   1.193232702137673E-2  
 4.000000000000000E9     5.581499636131239E-2  -3.423690917120524E-2  
 4.050000000000000E9     8.470060656491918E-3  -1.244059764969029E-1  
 4.100000000000000E9    -8.062275873264038E-2  -1.008855295915383E-1  
 4.150000000000000E9    -9.662188004515016E-2  -1.741581916911322E-2  
 4.200000000000000E9    -6.351213062325430E-2   1.663235117598243E-2  
 4.250000000000000E9    -3.680823496159617E-2   5.295693692403361E-3  
 4.300000000000000E9    -3.299866778570436E-2  -3.258848188798866E-2  
 4.350000000000000E9    -1.001801975335299E-1  -3.667589665947907E-2  
 4.400000000000000E9    -1.260538911148450E-1   8.073450021862813E-2  
 4.450000000000000E9    -2.859261900097875E-2   1.270812398476517E-1  
 4.500000000000000E9     1.755260199560808E-2   4.249358257788866E-2  
 4.550000000000000E9    -7.058587809726689E-2   2.771046328190976E-2  
 4.600000000000000E9    -3.724896355559369E-2   1.632876630836081E-1  
 4.650000000000000E9     1.217614465865408E-1   1.380345499177255E-1  
 4.700000000000000E9     1.131220426049368E-1  -3.671544146627296E-2  
 4.750000000000000E9    -6.954909453439422E-2  -1.718608196355783E-2  
 4.800000000000000E9     2.214935147704535E-2   1.661043659923107E-1  
 4.850000000000000E9     2.153977115429118E-1   5.878111434561713E-2  
 4.900000000000000E9     1.233906757092948E-1  -1.615789579204349E-1  
 4.950000000000000E9    -1.304043568333821E-1  -7.929455622900554E-2  
 5.000000000000000E9    -1.444962214208526E-2   1.543805079145590E-1  
 5.050000000000000E9     1.756518183653525E-1   1.658627839728314E-2  
 5.100000000000000E9     3.502132072110457E-2  -1.637347432844608E-1  
 5.150000000000000E9    -1.624358595215368E-1  -4.100198284756023E-3  
 5.200000000000000E9     2.026060670601047E-2   1.837261827332446E-1  
 5.250000000000000E9     1.742918577385168E-1   3.096965798504537E-2  
 5.300000000000000E9     6.321705079698869E-2  -9.602057108881808E-2  
 5.350000000000000E9    -4.497286093683482E-2  -8.872381258661292E-3  
 5.400000000000000E9     4.953195567702302E-2   5.380903615602120E-2  
 5.450000000000000E9     6.812394125156110E-2  -5.197869106978911E-2  
 5.500000000000000E9    -4.126949835586467E-2  -5.055616108426275E-2  
 5.550000000000000E9    -4.719176750911886E-2   7.236616765873177E-2  
 5.600000000000000E9     8.575902442362088E-2   8.895355108312182E-2  
 5.650000000000000E9     1.277206318707673E-1  -9.334714479452656E-4  
 5.700000000000000E9     1.083235905224219E-1  -4.044026676609533E-2  
 5.750000000000000E9     7.935476670975175E-2  -7.512289943313991E-2  
 5.800000000000000E9     1.243398366936195E-2  -6.568112112947619E-2  
 5.850000000000000E9     4.710574707303943E-2   3.627662470006143E-4  
 5.900000000000000E9     1.722787110609500E-1  -4.653211149574483E-2  
 5.950000000000000E9     1.521251114932360E-1  -2.457017644935902E-1  
 6.000000000000000E9    -1.689795516464905E-1  -2.585734912523822E-1  
 6.050000000000000E9    -2.178173354854415E-1   5.741457506820118E-2  
 6.100000000000000E9     2.340914287143709E-2   8.065044838440290E-2  
 6.150000000000000E9     4.869856454656140E-2  -1.450975854674246E-1  
 6.200000000000000E9    -2.107203705829877E-1  -1.355591209422700E-1  
 6.250000000000000E9    -1.793164162665831E-1   1.502837676717242E-1  
 6.300000000000000E9     4.933027327203231E-2   1.031741898079644E-1  
 6.350000000000000E9    -3.702911734489321E-2  -1.001839809985187E-1  
 6.400000000000000E9    -2.336973768508427E-1   1.100017752278252E-1  
 6.450000000000000E9     6.151596867979338E-2   3.294765489562514E-1  
 6.500000000000000E9     3.097399730474741E-1   1.001134629320173E-1  
 6.550000000000000E9     1.634594490478835E-1  -2.098268455637047E-1  
 6.600000000000000E9    -1.886973056961699E-1  -1.089737372024319E-1  
 6.650000000000000E9    -3.277829531323798E-2   2.046771049033533E-1  
 6.700000000000000E9     1.936755757483245E-1   3.972666373086430E-2  
 6.750000000000000E9     5.843309857864972E-2  -1.634919303556458E-1  
 6.800000000000000E9    -1.575641093582775E-1  -2.528603673397404E-2  
 6.850000000000000E9     9.104180297682788E-3   1.662136911146395E-1  
 6.900000000000000E9     1.736407510975753E-1   1.752191268144497E-2  
 6.950000000000000E9     7.847183779476794E-2  -1.516844749404689E-1  
 7.000000000000000E9    -1.104872180879428E-1  -1.014046265777505E-1  
 7.050000000000000E9    -7.696254495950697E-2   6.963846513370894E-2  
 7.100000000000000E9     1.881079570095985E-2   2.770522322850114E-2  
 7.150000000000000E9    -3.666670377344467E-2  -4.337894030840828E-2  
 7.200000000000000E9    -1.236897515069732E-1   3.398648494272043E-2  
 7.250000000000000E9    -1.815091814417246E-2   1.684550070854902E-1  
 7.300000000000000E9     1.225546900034390E-1   1.053284153864812E-1  
 7.350000000000000E9     1.009136710052789E-1  -2.056014112208416E-2  
 7.400000000000000E9    -3.246018971044831E-2  -2.156682283774844E-2  
 7.450000000000000E9    -6.755419077314436E-3   1.420522997704397E-1  
 7.500000000000000E9     2.067382513013588E-1   1.417138530133748E-1  
 7.550000000000000E9     2.997251624014033E-1  -5.399672165548362E-2  
 7.600000000000000E9     1.435238504257240E-1  -2.499099631522841E-1  
 7.650000000000000E9    -1.033676293597957E-1  -1.671306546493991E-1  
 7.700000000000000E9    -4.993209759765237E-2  -1.772420529290742E-2  
 7.750000000000000E9     3.855097111229310E-2  -9.851927786597604E-2  
 7.800000000000000E9    -8.634954517760543E-2  -1.879953981274635E-1  
 7.850000000000000E9    -2.341778128407535E-1   1.456591539048787E-2  
 7.900000000000000E9    -5.624899223437930E-2   1.729942505838170E-1  
 7.950000000000000E9     3.892290849730926E-2   4.821936380590069E-2  
 8.000000000000000E9    -8.774849576901998E-2   1.561922045127616E-2  
 8.050000000000000E9    -4.729656962036157E-2   2.183650693150520E-1  
 8.100000000000000E9     2.291018493621226E-1   1.973547758924682E-1  
 8.150000000000000E9     3.031619030609873E-1  -6.338831870878874E-2  
 8.200000000000000E9     8.599121450665558E-2  -2.385157679604124E-1  
 8.250000000000000E9    -1.469107900119611E-1  -8.134288503420659E-2  
 8.300000000000000E9    -2.553787877156060E-2   1.058713602947539E-1  
 8.350000000000000E9     9.020350906925251E-2   1.458606178564418E-2  
 8.400000000000000E9     2.061684523902514E-2  -5.466405494579636E-2  
 8.450000000000000E9    -9.319838722194390E-3   2.481183497124432E-2  
 8.500000000000000E9     1.016619102533238E-1   1.850624350709969E-2  
 8.550000000000000E9     1.208525701360027E-1  -1.123292918293712E-1  
 8.600000000000000E9     1.009489103395237E-3  -1.818453400768441E-1  
 8.650000000000000E9    -1.223636333598704E-1  -8.414232524280894E-2  
 8.700000000000000E9    -7.166128671189830E-2   3.430533068881627E-2  
 8.750000000000000E9     1.088072221047634E-4  -1.542961072596646E-3  
 8.800000000000000E9    -3.309691897611899E-2  -5.934322707321627E-2  
 8.850000000000000E9    -9.968935182363838E-2  -8.595544647179897E-3  
 8.900000000000000E9    -4.610015286779621E-2   7.773404709337309E-2  
 8.950000000000000E9     3.030813946192499E-2   3.669956793172999E-2  
 9.000000000000000E9    -5.030401571453052E-3  -4.221393816342501E-2  
 9.050000000000000E9    -9.968647463709952E-2   1.342484724979011E-2  
 9.100000000000000E9    -1.297218168536239E-2   1.452941644169643E-1  
 9.150000000000000E9     1.470467697421468E-1   8.108924998397549E-2  
 9.200000000000000E9     1.385133890942100E-1  -1.000740060613962E-1  
 9.250000000000000E9    -6.296243409039380E-2  -1.398249048161257E-1  
 9.300000000000000E9    -9.730535026108532E-2   4.857375392720603E-2  
 9.350000000000000E9     5.487798384342137E-2   4.825370668804026E-2  
 9.400000000000000E9     6.814436641251624E-2  -1.139339230434707E-1  
 9.450000000000000E9    -1.332113275128660E-1  -1.584378660956367E-1  
 9.500000000000000E9    -2.006404400567920E-1   1.077528512728779E-1  
 9.550000000000000E9    -6.859075547430883E-3   1.716453650646880E-1  
 9.600000000000000E9     2.412429769833696E-2   4.372594273902258E-2  
 9.650000000000000E9    -9.060771597466101E-2   5.870837893769814E-2  
 9.700000000000000E9     1.219869910650133E-2   2.211675838236568E-1  
 9.750000000000000E9     2.236571295460060E-1   1.304556343668071E-1  
 9.800000000000000E9     2.042013601862326E-1  -9.799076141256644E-2  
 9.850000000000000E9    -5.461947331543401E-2  -1.722394665211645E-1  
 9.900000000000000E9    -1.622184000389956E-1   1.106492738226846E-1  
 9.950000000000000E9     8.895978603350811E-2   2.076180104966422E-1  
 1.000000000000000E10    1.939309680405765E-1   4.406633731344854E-2  
 1.005000000000000E10    7.597170988025521E-2  -7.387149109563886E-2  
 1.010000000000000E10   -2.567889446972831E-2   3.158082107779941E-2  
 1.015000000000000E10    1.193133810095991E-1   8.758622642361737E-2  
 1.020000000000000E10    1.938620666223013E-1  -4.375259622884036E-2  
 1.025000000000000E10    8.186112488331554E-2  -1.536928133506872E-1  
 1.030000000000000E10   -8.243365034868713E-2  -5.768875605035453E-2  
 1.035000000000000E10    2.645079379075527E-2   9.203457219539350E-2  
 1.040000000000000E10    1.697377995489320E-1  -3.754686916548651E-3  
 1.045000000000000E10    1.169378689420231E-1  -1.554231825308085E-1  
 1.050000000000000E10   -5.932254944230295E-2  -1.289879021456697E-1  
 1.055000000000000E10   -2.937064627551100E-2   2.953085912539898E-2  
 1.060000000000000E10    1.116083252739252E-1  -3.419392959196247E-2  
 1.065000000000000E10    6.329609689770530E-2  -1.915343147186880E-1  
 1.070000000000000E10   -1.564866652929829E-1  -1.489910702457155E-1  
 1.075000000000000E10   -1.252237208340351E-1   1.036376545441609E-1  
 1.080000000000000E10    7.948469611296116E-2   6.330859583005143E-2  
 1.085000000000000E10    6.329191118339117E-2  -1.295778981275754E-1  
 1.090000000000000E10   -1.573471601438565E-1  -1.304058536954934E-1  
 1.095000000000000E10   -1.629365937856775E-1   1.467813926573255E-1  
 1.100000000000000E10    6.729808164946412E-2   1.763620597280058E-1  
 1.105000000000000E10    1.277891987149002E-1   1.166573952035332E-2  
 1.110000000000000E10    4.422869330759679E-3  -5.677655874219044E-2  
 1.115000000000000E10   -1.679148861818942E-2   6.669476975044368E-2  
 1.120000000000000E10    1.378413107641803E-1   4.873412253020661E-2  
 1.125000000000000E10    1.573883545401630E-1  -1.127777598544223E-1  
 1.130000000000000E10   -4.958671827062672E-3  -1.825712391539585E-1  
 1.135000000000000E10   -1.009233348014653E-1  -3.445737585572476E-2  
 1.140000000000000E10    2.046403560134566E-2   1.701968496933086E-3  
 1.145000000000000E10    4.990983165752552E-2  -1.337536138218936E-1  
 1.150000000000000E10   -9.657344679744068E-2  -2.036512378890758E-1  
 1.155000000000000E10   -2.324336827515568E-1  -2.527433359355191E-2  
 1.160000000000000E10   -1.069318526077771E-1   1.213764771408303E-1  
 1.165000000000000E10   -1.142981627433006E-2   3.084548040238781E-2  
 1.170000000000000E10   -9.614946323703527E-2  -6.080628249921126E-2  
 1.175000000000000E10   -1.953263239036890E-1   8.231547394653790E-2  
 1.180000000000000E10   -5.762305411225416E-2   2.249397287647705E-1  
 1.185000000000000E10    6.543578880751146E-2   1.480679002748312E-1  
 1.190000000000000E10    1.312601227069616E-2   1.645207916162344E-2  
 1.195000000000000E10   -1.132720171577245E-1   9.184563247070421E-2  
 1.200000000000000E10    3.763371390856450E-2   2.652407486834677E-1  
 1.205000000000000E10    2.297426891767468E-1   1.990875807353804E-1  
 1.210000000000000E10    2.281714270414849E-1   4.310824045321908E-3  
 1.215000000000000E10    6.551823246661927E-2  -3.729767115631732E-2  
 1.220000000000000E10    1.086404869347732E-1   7.109771360842843E-2  
 1.225000000000000E10    2.479991798168680E-1  -1.889693924153141E-2  
 1.230000000000000E10    1.560646036680694E-1  -2.194064680579545E-1  
 1.235000000000000E10   -1.284787701944079E-1  -1.555351837280675E-1  
 1.240000000000000E10   -6.989182126608792E-2   9.620860493227827E-2  
 1.245000000000000E10    1.333150155533159E-1   4.465568960771100E-2  
 1.250000000000000E10    9.471714891404656E-2  -1.425150754345802E-1  
 1.255000000000000E10   -1.005617984253836E-1  -9.949809564458760E-2  
 1.260000000000000E10   -4.508667225516453E-2   7.020704743366744E-2  
 1.265000000000000E10    9.465306052966774E-2   3.837304925141079E-3  
 1.270000000000000E10    1.565565636122408E-2  -1.329036830325460E-1  
 1.275000000000000E10   -1.484955634276080E-1  -1.981662922085514E-2  
 1.280000000000000E10   -2.599746655521901E-2   1.588541085456094E-1  
 1.285000000000000E10    1.471245724989752E-1   8.419512452117191E-2  
 1.290000000000000E10    1.276061016262793E-1  -7.190811548126173E-2  
 1.295000000000000E10    1.309979840042601E-2  -7.873025150827283E-2  
 1.300000000000000E10    2.704497802656169E-2  -1.293281890850928E-2  
 1.305000000000000E10    8.421326120353187E-2  -6.122778439762093E-2  
 1.310000000000000E10    2.412082111844892E-2  -1.359207981089445E-1  
 1.315000000000000E10   -6.518737602053752E-2  -9.047794058241987E-2  
 1.320000000000000E10   -4.015304326259029E-2  -1.566047178407591E-2  
 1.325000000000000E10    2.201398053046437E-2  -4.109516301335522E-2  
 1.330000000000000E10    2.228625737756341E-3  -1.091755137192227E-1  
 1.335000000000000E10   -8.229326125315142E-2  -1.030980540369864E-1  
 1.340000000000000E10   -1.036179897814194E-1  -2.459292014793931E-2  
 1.345000000000000E10   -3.910447092688692E-2  -9.062554694364273E-3  
 1.350000000000000E10   -1.807822149116638E-2  -8.851532858795007E-2  
 1.355000000000000E10   -1.366396352243105E-1  -1.308093394982177E-1  
 1.360000000000000E10   -2.460613534606158E-1   1.266599996515628E-3  
 1.365000000000000E10   -1.638248381421688E-1   1.672453623529655E-1  
 1.370000000000000E10   -8.251991831842916E-3   1.510369390357913E-1  
 1.375000000000000E10   -8.260787506175251E-3   5.306683658988245E-2  
 1.380000000000000E10   -6.613874511169150E-2   8.991075248944515E-2  
 1.385000000000000E10    2.011546563782762E-2   1.593711966403204E-1  
 1.390000000000000E10    1.256869138244381E-1   5.587428427360421E-2  
 1.395000000000000E10    2.856266115738729E-2  -7.503857001001257E-2  
 1.400000000000000E10   -1.027366325427483E-1   2.063337317173405E-2  
