#  HZ   S   RI   R     1.00 
! Rohde & Schwarz ZVA67 4Ports - Version 4.11 - 1305.7002k04 SN: 101032
! Date: 2023-06-01 16:45:07
! Measurements: S11 S21 S12 S22 
! 
 1.000000000000000E8     1.409421927823910E-1  -1.358616308960362E-1  -8.051082997792948E-1   5.575838004693671E-1   8.516509046294558E-1  -4.792735584562118E-1   4.060175624585852E-2  -1.062889547962286E-1  
 1.500000000000000E8     8.210046107405593E-2  -1.236930495024869E-1   6.843122641671040E-1   6.892409381710278E-1  -6.285015566995341E-1   7.340823740102425E-1   4.194859339644848E-2   2.329165849249719E-2  
 2.000000000000000E8    -7.227979696547157E-2  -5.919392230606822E-2   4.574470416926809E-1  -8.524395717658093E-1   3.792053682417582E-1  -8.698799933089459E-1   1.009839128850761E-1   8.766528728019794E-2  
 2.500000000000000E8    -4.757076283045881E-2   6.201966515945082E-2  -9.106745189744737E-1  -2.589063074204885E-1  -3.769982868667826E-2   9.442767895966534E-1   1.771124540149049E-1   1.844910930031489E-3  
 3.000000000000000E8    -1.850649898929202E-2   2.971085078905546E-2   3.494388510561873E-2   9.477893019230548E-1  -1.208451305850107E-1  -9.417538165879392E-1   4.404608626950957E-2  -1.807907630390272E-1  
 3.500000000000000E8     8.383333719507743E-2   9.133278217120179E-2   9.071736363765786E-1  -2.575190081002575E-1   3.007834630601527E-1   8.922446779682788E-1  -3.594180088248814E-2  -4.471686041844400E-2  
 4.000000000000000E8     2.606160884370329E-1  -3.424760241666117E-2  -4.388073733936312E-1  -8.263716286597908E-1  -5.512405587719466E-1  -7.563715901939279E-1   1.089770933833081E-1  -2.894956021504276E-2  
 4.500000000000000E8     1.583744914136486E-1  -4.759645641111013E-2  -6.663628962711631E-1   6.751407796552054E-1   6.821392153327255E-1   6.425425509318984E-1   9.525726387294271E-2   3.649721925700839E-2  
 5.000000000000000E8     2.039179619386445E-1  -2.434420784658248E-2   8.032097221371236E-1   4.572037963593871E-1  -7.979357344873534E-1  -4.603043323026970E-1   2.029619908284956E-1   1.423163610454171E-2  
 5.500000000000000E8     5.786899649635902E-3  -7.016198047256377E-2   2.510840994740123E-1  -8.893754387055035E-1   9.097010869981873E-1   1.335325054974571E-1  -4.974343145588102E-3  -7.855810885242030E-2  
 6.000000000000000E8    -1.942310371318814E-2   5.800643730239431E-2  -9.186199338715206E-1  -3.795388421804996E-2  -8.808761879653496E-1   2.112180593180184E-1  -5.414520939737515E-2   1.081416642662172E-1  
 6.500000000000000E8    -6.986323372542319E-2  -4.731030404158756E-2   2.464430379336521E-1   8.824301403134739E-1   8.687171354215479E-1  -2.926833104637991E-1   3.307383784842824E-3   4.345581048847370E-2  
 7.000000000000000E8    -1.255778893230988E-1   9.087548276450864E-2   7.895001850785497E-1  -4.259055899119732E-1  -8.160936392369372E-1   4.116694245807508E-1   2.768051497992615E-2   1.004753304436437E-1  
 7.500000000000000E8     7.202336639143962E-2   7.071043268660411E-2  -6.181058198993692E-1  -6.755784507031581E-1   6.610853602687179E-1  -6.085793661307599E-1   1.823252907058387E-1  -4.648921443145582E-2  
 8.000000000000000E8     3.560775822354374E-2   6.472772553664402E-2  -4.736165661340579E-1   7.836912129860222E-1  -4.736755536742307E-1   7.526686464070916E-1  -3.182720299256470E-2  -1.104259435799110E-1  
 8.500000000000000E8     2.063423222735300E-1   1.086755390578100E-1   8.539287723327786E-1   2.693163726066792E-1   2.410274606158316E-1  -8.678765423040138E-1  -3.118596930015946E-3   5.517232294111650E-2  
 9.000000000000000E8     1.400954151951330E-1  -4.595423332215101E-2   6.039245578696099E-3  -8.932315669300118E-1  -4.339045076162484E-2   9.008816126364685E-1  -6.682815092390836E-3   4.157673147077505E-2  
 9.500000000000000E8     7.742749538117148E-2   1.571722150900967E-2  -8.804981379417443E-1   1.865675632749944E-1  -2.646248984340567E-1  -8.500968566719344E-1   4.620978950937543E-2   1.429907387585814E-1  
 1.000000000000000E9     2.801943217278365E-2  -7.165553996485374E-2   4.048823125031675E-1   7.905295564732809E-1   4.851534020755826E-1   7.441763271434875E-1   9.291995805562299E-2   6.023240206534631E-3  
 1.050000000000000E9    -1.118941433480915E-1   9.119466972761193E-3   6.617246111044837E-1  -5.881629021508716E-1  -6.087862860549420E-1  -6.367705906455584E-1  -7.579255655745082E-2  -8.575086280132071E-3  
 1.100000000000000E9    -7.423201469169161E-2   2.859427630198803E-2  -7.526104200198746E-1  -4.855310871367846E-1   7.415273985924641E-1   4.890130306538217E-1  -7.792153525537152E-2   4.453429408916938E-2  
 1.150000000000000E9    -1.109004923046697E-1   3.558354804586272E-2  -2.809788732149420E-1   8.495646132326756E-1  -8.580559424667105E-1  -2.248806559391561E-1  -5.767436541815838E-2   5.572361895910855E-2  
 1.200000000000000E9    -2.216875396217232E-2   8.855001023784984E-2   8.810498671323618E-1   6.627149915001070E-2   8.733190857465799E-1  -5.113361185954961E-2   6.488586950957105E-2   4.844698314165647E-2  
 1.250000000000000E9     4.716907327718278E-2   8.261732259345651E-2  -1.897188221030711E-1  -8.580147863297324E-1  -8.453600181577615E-1   2.164862243924449E-1   9.487284332575109E-2  -3.916559489989498E-2  
 1.300000000000000E9     1.116321131153467E-1   8.538507307758071E-2  -7.848947061326800E-1   3.817699403467872E-1   7.439861128147932E-1  -4.472216608534921E-1   2.751339569460803E-2  -4.022852086085125E-2  
 1.350000000000000E9     1.048063865045225E-1   4.543386035918667E-2   5.830043417734940E-1   6.493036696739586E-1  -5.754191002408635E-1   6.534749935479701E-1  -6.924997665977407E-2   5.444078724637225E-2  
 1.400000000000000E9     9.787951542553124E-2   4.098651088927557E-4   5.036291820848311E-1  -7.034458853463166E-1   3.202831798916972E-1  -7.969246878736879E-1  -1.669647101644317E-2   1.444828302873008E-1  
 1.450000000000000E9    -3.950690880456215E-2  -6.845587673589497E-2  -8.212339082393171E-1  -2.859560362104822E-1  -1.416370133657260E-1   8.518859070541764E-1   3.549902775476503E-3   7.164021196809126E-2  
 1.500000000000000E9    -7.795526515707998E-2  -1.991162983837811E-3  -4.861356056350259E-2   8.709265737084607E-1  -3.219412870462172E-2  -8.629270681782464E-1   3.145109953769970E-2   4.351765534903686E-2  
 1.550000000000000E9    -1.004668139072370E-1  -6.647367652261525E-2   8.502907461318064E-1  -1.371279942736071E-1   2.794930587924955E-1   8.124843903632336E-1   6.370189779988500E-3  -9.909578527578652E-2  
 1.600000000000000E9    -1.515755336447201E-1   7.499266736859414E-2  -3.579181729064720E-1  -7.704926377379552E-1  -4.518740058951597E-1  -7.204593554015357E-1  -1.313117855632514E-1   2.456254454169019E-2  
 1.650000000000000E9     6.534599015212828E-3   6.146954081627481E-2  -6.519573615712924E-1   5.615459171886152E-1   5.684124849151544E-1   6.388075060243866E-1   1.930352330565420E-2   7.587494436565595E-2  
 1.700000000000000E9    -9.806485113017795E-2   6.702008888819039E-2   6.957729783287578E-1   5.052849218539286E-1  -6.856878474739554E-1  -5.138009207911308E-1  -3.470898152878489E-2   2.088287526404456E-2  
 1.750000000000000E9     7.103445126723453E-2   1.465170610058389E-1   2.948627746593144E-1  -7.885486523486545E-1   7.792397151031917E-1   3.112421124057024E-1   8.465643542978545E-2   5.423278877590816E-2  
 1.800000000000000E9     4.775761728633060E-2  -5.484577217094423E-2  -8.415310809186792E-1  -8.538314292521579E-2  -8.384793111780966E-1  -3.624557308420844E-2  -1.195187632856590E-2  -1.564521981825530E-1  
 1.850000000000000E9     3.043227336518758E-2   5.988110866434535E-2   1.235441307666032E-1   8.405345794865010E-1   8.067124048156370E-1  -2.081904307573181E-1  -1.388301568413628E-1   5.664365153273450E-2  
 1.900000000000000E9     9.282974719095949E-2  -1.240131128191179E-1   7.669185389406718E-1  -3.497826630000061E-1  -7.831950928732008E-1   3.254921232417944E-1  -1.502895098710539E-2   4.303588604024167E-2  
 1.950000000000000E9    -1.274564846413506E-1  -8.007029236123157E-2  -5.229515889722821E-1  -6.470220848901830E-1   7.306259163818878E-1  -4.290873342309851E-1  -1.021349678205396E-1   8.036899071926275E-2  
 2.000000000000000E9    -1.756352576220965E-2  -3.135226374515446E-2  -5.029494215283480E-1   6.740148290964511E-1  -4.968244626132321E-1   6.550638479632794E-1   1.061356240074390E-1   5.769055567987330E-2  
 2.050000000000000E9    -1.690417885047756E-1  -7.630110669902132E-2   7.748208836685485E-1   3.294249593166267E-1   1.725552265396218E-1  -8.136229188764952E-1  -3.525581877778789E-2  -1.459458482715637E-1  
 2.100000000000000E9    -6.442772343663812E-2   1.099689096186474E-1   1.073565120068594E-1  -8.111345485046383E-1  -6.041694484112851E-2   8.279460713853927E-1  -6.999969133224390E-2   2.057513820334526E-2  
 2.150000000000000E9    -1.970676017194916E-4   9.568832436058843E-3  -8.318070735473334E-1   1.332015168563760E-1   3.379736715318205E-2  -8.345226339329824E-1  -1.521911422021808E-2  -8.735685489140814E-4  
 2.200000000000000E9    -4.558999999613717E-2   1.160316987177392E-1   2.957585959501193E-1   7.874031916918654E-1   1.933120636549510E-1   8.088604818886654E-1  -4.400191236762502E-2   1.138788864420345E-1  
 2.250000000000000E9     9.299640177999592E-2   5.396746583356645E-2   6.458768828869829E-1  -5.235808060420931E-1  -4.276660939278977E-1  -7.059172760990732E-1   9.588948587749643E-2   3.903733008559635E-2  
 2.300000000000000E9     1.439137958598963E-2  -2.777524772544968E-2  -6.388856639300367E-1  -5.298360849258892E-1   5.495415987378253E-1   6.006692344955571E-1  -1.785167989289433E-2  -9.752720360699309E-2  
 2.350000000000000E9     5.741284335228838E-2  -6.679301929156174E-2  -3.034733454000928E-1   7.591799164612341E-1  -5.708876941534627E-1  -5.885550524819617E-1  -6.109732557816112E-2  -7.422051212711972E-2  
 2.400000000000000E9     2.247928988182606E-2  -1.648883030101903E-1   7.969440090411811E-1   9.125216027858621E-2   7.402089236855500E-1   3.616929074720336E-1  -5.359253440356729E-2  -5.217995843828144E-2  
 2.450000000000000E9    -2.236853074093738E-2  -1.480744266759061E-1  -4.761805908793661E-2  -8.209667414709148E-1  -8.101532061262480E-1   9.558849010222771E-2   2.435071957082224E-2  -9.687636746948048E-3  
 2.500000000000000E9    -6.533847587413988E-2  -8.233394937529490E-2  -7.593512531680464E-1   3.002162519486676E-1   7.791656174413599E-1  -2.482466920764793E-1   8.722923535442020E-2  -1.626600337879980E-2  
 2.550000000000000E9    -2.319514047591188E-2   1.037140294251250E-2   4.779552730045939E-1   6.634411811888220E-1  -7.403676794211829E-1   3.056557680859677E-1   8.471347063556517E-2  -7.990936554845861E-2  
 2.600000000000000E9    -6.319146631273796E-2   2.230497613253214E-2   4.905282115551978E-1  -6.655971340195541E-1   6.511333723801688E-1  -4.900469954902559E-1  -8.370153964287230E-2  -5.637739873585437E-2  
 2.650000000000000E9     2.592391311649947E-2   1.113609351437637E-1  -7.303008207044952E-1  -3.264576321254181E-1  -2.703758040110834E-1   7.513683683475508E-1  -2.290989148382763E-2   9.571050224714364E-2  
 2.700000000000000E9     5.022922826277018E-2  -3.141778897732886E-2  -1.416750604248028E-1   8.007134250870827E-1   5.561795701271018E-2  -8.083693601221137E-1  -9.198409459340366E-3   2.418329396644437E-2  
 2.750000000000000E9     1.531583212070227E-2   4.094039067073474E-2   8.085701225437911E-1  -7.477468903561990E-2  -1.270738769616134E-1   7.997679911888171E-1   8.735325983731397E-3   1.045036785974495E-1  
 2.800000000000000E9     1.586909956945626E-1  -8.120411995567038E-2  -3.255642204673583E-1  -7.135874663637419E-1   3.593944450860668E-2  -7.759039155250872E-1   1.167115082515760E-1  -7.793561853114066E-2  
 2.850000000000000E9    -4.569570577324732E-2  -1.319463501515378E-1  -6.715552903740403E-1   4.344487451795022E-1   3.829363070505633E-1   7.040177179946054E-1  -1.091730751355287E-1  -6.251235795803906E-2  
 2.900000000000000E9     8.483072447125507E-2  -3.861411849929822E-2   6.091141658293963E-1   5.229882689115982E-1  -6.211474921741390E-1  -4.853334473380286E-1   9.157893587375517E-2   3.267130145177741E-2  
 2.950000000000000E9    -5.854084399020449E-2  -1.645726701240686E-1   3.342415245853859E-1  -7.167920913686849E-1   7.024688932201822E-1   3.570518921196018E-1   2.206089765348087E-2  -8.420315220372905E-2  
 3.000000000000000E9    -4.824318512661848E-2   1.132320268196342E-1  -7.858882431551646E-1  -1.279153542745585E-1  -7.521009636300342E-1  -2.125617457376329E-1   1.142265219258354E-1   1.033060037864895E-1  
 3.050000000000000E9     7.690147647301641E-2  -3.979352324103535E-2   8.387506994050634E-2   7.880275398854879E-1   7.745117926145043E-1  -8.676542796622221E-2   1.042630424281354E-1  -1.371986171433566E-1  
 3.100000000000000E9    -8.305388171641231E-2   1.091546211125522E-1   7.406470502664142E-1  -2.461996745533832E-1  -6.207072203672981E-1   4.287983123775327E-1  -1.108454836121322E-1   9.858911337298697E-2  
 3.150000000000000E9     1.627325235959997E-1   6.550693552101625E-2  -4.407651851335609E-1  -6.498190559607791E-1   6.287736539178865E-1  -4.738503082288445E-1   8.330805576471292E-2   1.040677911193396E-1  
 3.200000000000000E9    -1.837679275210449E-2  -6.976632196622619E-2  -4.915713413925926E-1   5.956636347677770E-1  -6.271392841621485E-1   4.602379430524431E-1  -6.058477319573479E-2   1.920476823437807E-2  
 3.250000000000000E9     8.986169910016637E-2   7.267095960166840E-2   7.158284782929043E-1   3.220824363548779E-1   3.901631512540617E-1  -6.561327250200822E-1   1.406784287600071E-1   9.153793785500115E-2  
 3.300000000000000E9     6.434073107482266E-2  -1.521337910675674E-1   1.814059710928586E-1  -7.583253073060760E-1  -8.067773337647178E-3   7.714116139846192E-1   5.705537955779406E-2  -1.746167703711767E-1  
 3.350000000000000E9    -4.123290137229484E-2   3.903370095369262E-2  -7.704509937322666E-1   4.389852495960508E-2  -1.016003679700155E-1  -7.554473496581309E-1  -6.344328634248556E-2   3.248585892537111E-2  
 3.400000000000000E9     7.119163479558022E-2  -3.528034895311167E-3   2.594245047429752E-1   7.317192609610822E-1   8.772100665565878E-2   7.653744256031720E-1   5.771306101303125E-2   4.860554337282141E-2  
 3.450000000000000E9    -8.267951867799270E-2   4.512123078681447E-2   6.413689220568661E-1  -4.399924877278004E-1  -3.330840476091627E-1  -7.006883626021108E-1  -2.676764269196883E-2   1.023610171556866E-1  
 3.500000000000000E9     4.674815358353066E-2   1.282824677008725E-1  -5.685735464355693E-1  -5.258650024102934E-1   6.180190347846731E-1   4.313125001124822E-1   1.285346414357757E-1   1.246577297228688E-1  
 3.550000000000000E9    -7.584799282105969E-3   6.589005766447560E-2  -3.612183750330303E-1   6.873252827593847E-1  -6.989501091804801E-1  -3.101365852162081E-1   4.416047616350425E-2  -2.531934104269977E-2  
 3.600000000000000E9     1.366220863480431E-2   1.137766728691037E-1   7.575657015284671E-1   1.626971294480230E-1   7.315095069472277E-1   2.332410709065887E-1  -6.959010627918377E-2   2.466420688533937E-2  
 3.650000000000000E9     2.006046596332475E-2   4.205833460846004E-2  -7.249086019746338E-2  -7.706908495231702E-1  -7.702567719359690E-1   5.219392726879581E-2  -3.950805320515675E-2   5.779174142419890E-2  
 3.700000000000000E9     2.600194453722397E-2   1.472845219274422E-2  -7.439716183172673E-1   2.360037891828153E-1   6.334451853007255E-1  -4.319735815819664E-1  -2.421096108002876E-2   4.061689543603553E-2  
 3.750000000000000E9    -2.632758482337910E-2  -3.229063326738379E-2   4.101496551927309E-1   6.585684023756716E-1  -5.308727971630451E-1   5.443648090796255E-1   6.533221851887342E-3   4.501069246148897E-2  
 3.800000000000000E9    -1.564672142452476E-2   7.151306803956538E-3   4.907380155734706E-1  -5.932771793346956E-1   5.517955111449003E-1  -5.122656187039438E-1   5.970662954511778E-2  -1.813872671196193E-2  
 3.850000000000000E9    -5.296633089128293E-2  -3.682503030936821E-2  -6.822854808601772E-1  -3.358613144392616E-1  -3.451267397003376E-1   6.790009178230237E-1  -6.867289406671925E-2  -1.812038864986913E-2  
 3.900000000000000E9    -6.840583148971263E-2   1.231025586327321E-1  -1.450992670691975E-1   7.421931082818428E-1  -2.653383339832100E-2  -7.430262842002909E-1   3.123010963769638E-2   1.349960133474443E-1  
 3.950000000000000E9     3.745795686234404E-2   5.717921723394771E-2   7.608246440062444E-1  -2.817041631586151E-2   1.665055350855039E-1   7.395437085661060E-1   5.293742755983047E-2   3.855814918006355E-2  
 4.000000000000000E9    -9.834449676070249E-2   1.224585871688597E-1  -2.209745608214860E-1  -7.141827483244340E-1  -1.400780479427170E-1  -7.424209510945007E-1  -1.178161468069738E-2   1.617076042685559E-1  
 4.050000000000000E9     7.928165283835310E-2   1.730948019972428E-1  -6.066798414602840E-1   4.193230180077882E-1   3.801345066025117E-1   6.316799014566626E-1   1.066446187248163E-1   3.463471930175096E-2  
 4.100000000000000E9    -5.953617888623056E-2   2.482904396297488E-2   5.566106605232458E-1   5.102176184035462E-1  -6.484430729744516E-1  -3.669363775422477E-1  -1.604282284016425E-1   5.477369536470048E-2  
 4.150000000000000E9     1.557217448786706E-2   1.651450995242035E-1   3.528685144298103E-1  -6.410305067100268E-1   7.021066347852184E-1   2.438361123533797E-1  -2.397928931507332E-2   1.791637381591782E-1  
 4.200000000000000E9     9.267946827110230E-3  -1.015612866955019E-1  -7.156934235917248E-1  -1.517362096035254E-1  -6.891224543472584E-1  -2.673939676176387E-1  -6.414985488829357E-2  -5.536896530257143E-2  
 4.250000000000000E9    -1.674951284500364E-1   1.342957918556232E-2   2.160706102028906E-2   7.384315327900410E-1   7.499726726668858E-1   1.123605162991006E-2  -4.968805189795128E-2   1.098339113600591E-1  
 4.300000000000000E9     3.584748381488713E-2  -4.409642971239961E-2   7.063324463656029E-1  -1.980981187844346E-1  -6.761268950652223E-1   3.150652347116334E-1   9.622914745258203E-2  -1.189683149925734E-1  
 4.350000000000000E9    -1.924968751870904E-1   2.219696643700171E-3  -3.979641148830790E-1  -6.111876495686062E-1   5.504849250200898E-1  -4.752360071918158E-1  -1.575379806092548E-1  -5.252946109192930E-3  
 4.400000000000000E9     3.468014458427196E-3   1.672545269950889E-1  -5.090375305982863E-1   5.286604149254528E-1  -5.950772042197989E-1   4.539058269677273E-1   2.152914048067729E-2   1.369020216153803E-1  
 4.450000000000000E9    -7.550667414966775E-2  -3.300086680291518E-2   6.329596895866430E-1   3.689285565872216E-1   4.626422457234977E-1  -5.788015075601404E-1  -1.136520809953718E-1  -2.540402345360143E-2  
 4.500000000000000E9    -1.045054617349014E-1   1.785537564943741E-1   1.518716252243462E-1  -7.019313151259580E-1  -1.720283596128847E-1   7.039677269358005E-1  -7.599973755811068E-2   1.618073044350980E-1  
 4.550000000000000E9     1.357996834463911E-2  -4.568723663624185E-2  -7.344631524131152E-1   2.585032564669228E-2   6.764580815895922E-3  -7.305838991640061E-1  -1.432904525599682E-2  -1.177877039658597E-1  
 4.600000000000000E9    -1.434411945238579E-1  -1.927254798643124E-2   2.074245035627342E-1   6.872713132848446E-1   3.741274933715710E-2   7.205284132465569E-1  -2.025971601892633E-1  -5.819714078913751E-2  
 4.650000000000000E9     7.065909081508309E-2  -2.110448418428317E-2   6.256460180405679E-1  -3.528157717706645E-1  -2.265438672327256E-1  -6.990406324174309E-1  -1.855637949574142E-3   5.734001212008609E-3  
 4.700000000000000E9    -6.482816174947068E-2  -1.264062351721169E-1  -5.233155493488944E-1  -4.910415615824840E-1   4.755405086438552E-1   5.593757869863411E-1  -1.118720874056490E-1  -4.170776180837690E-2  
 4.750000000000000E9    -7.974023960003861E-3   4.343496122463237E-2  -3.424119789792866E-1   6.328590015943397E-1  -5.816193807187320E-1  -4.355228427510297E-1  -2.327573846539338E-2   1.216269626260733E-1  
