#  HZ   S   RI   R     1.00 
! Rohde & Schwarz ZVA67 4Ports - Version 4.11 - 1305.7002k04 SN: 101032
! Date: 2023-06-01 16:49:20
! Measurements: S11 S21 S12 S22 
! 
 1.000000000000000E8     1.380311674675361E-1  -1.376747078932088E-1  -7.929029226724705E-1   5.738836101521415E-1   8.404804327412561E-1  -4.961395247019685E-1   3.845246211605142E-2  -1.038421644826412E-1  
 1.500000000000000E8     7.622690302268867E-2  -1.228602828767392E-1   7.063942519927506E-1   6.689060826215287E-1  -6.043020892112909E-1   7.528697419778546E-1   4.512368377140269E-2   2.643059840222478E-2  
 2.000000000000000E8    -7.118109525780104E-2  -4.771841337441433E-2   4.217034267575088E-1  -8.697488894210119E-1   3.433311108356415E-1  -8.832352333274749E-1   1.116760798332624E-1   8.480590629162138E-2  
 2.500000000000000E8    -3.975725638021531E-2   7.230751682539269E-2  -9.211466812829121E-1  -2.134899343062855E-1   1.106044680525679E-2   9.450856326764636E-1   1.776198371874224E-1  -9.779874325720108E-3  
 3.000000000000000E8    -8.804263920670852E-3   3.998985976282957E-2   9.200507516276484E-2   9.431938654404755E-1  -1.787446745061263E-1  -9.309282461881674E-1   2.505459335928572E-2  -1.756123024892332E-1  
 3.500000000000000E8     9.478373232001272E-2   8.445961106394323E-2   8.869416728779850E-1  -3.210927744535247E-1   3.632594691231022E-1   8.667949852160184E-1  -4.187627700073759E-2  -3.153262180717450E-2  
 4.000000000000000E8     2.565942198192107E-1  -6.062362751050576E-2  -5.036998516171632E-1  -7.882361739667297E-1  -6.107511822017873E-1  -7.077108675165971E-1   1.050084754331635E-1  -3.339834951674079E-2  
 4.500000000000000E8     1.502371588263007E-1  -7.285295387000111E-2  -5.997664998712800E-1   7.326617763016952E-1   7.378936867339123E-1   5.758376084735507E-1   1.021881214859222E-1   2.570448319501905E-2  
 5.000000000000000E8     1.935798684903101E-1  -4.969844541063107E-2   8.454503651134988E-1   3.742079669956700E-1  -8.399871209582636E-1  -3.765363412500126E-1   2.001097423461333E-1  -1.444669901801475E-2  
 5.500000000000000E8    -3.741243215111726E-3  -6.696068089045823E-2   1.503653979653907E-1  -9.108098276402412E-1   9.178965262942890E-1   3.035679542165061E-2  -2.067145815388785E-2  -6.830671158012132E-2  
 6.000000000000000E8    -1.518050238684494E-2   7.618151185274442E-2  -9.135742248434497E-1   7.326736541993452E-2  -8.465188603675309E-1   3.144372657994538E-1  -3.277709309032010E-2   1.303614269238890E-1  
 6.500000000000000E8    -6.665866555236605E-2  -1.375678273803863E-2   3.597141772821056E-1   8.425922598711068E-1   8.218884550069370E-1  -4.040596230703145E-1   1.690266393167558E-2   5.401626559009334E-2  
 7.000000000000000E8    -1.059826837222011E-1   1.229827678407954E-1   7.240656485915779E-1  -5.313719107565003E-1  -7.479939294602291E-1   5.249096093562826E-1   4.768854775944084E-2   9.570666617774991E-2  
 7.500000000000000E8     9.258213401092430E-2   6.753690744498082E-2  -7.125356470840656E-1  -5.721026281263272E-1   5.594667091394227E-1  -6.984234967221157E-1   1.568441471614014E-1  -8.565964527945932E-2  
 8.000000000000000E8     4.940028864641739E-2   4.285535087764828E-2  -3.379805737854035E-1   8.485174659833925E-1  -3.463193496462659E-1   8.171615292088399E-1  -7.503129581812519E-2  -9.195051198101646E-2  
 8.500000000000000E8     2.140661611647523E-1   5.874351859516971E-2   8.849616366880572E-1   1.209227441493392E-1   8.683889589273530E-2  -8.947504418253481E-1   2.328544334963255E-3   6.987900703612912E-2  
 9.000000000000000E8     1.247319425977585E-1  -8.807243562485315E-2  -1.526601331636839E-1  -8.755330577967391E-1   1.222192407109979E-1   8.915414695597839E-1   3.098228789036904E-3   4.961615091033118E-2  
 9.500000000000000E8     5.811792042469322E-2  -4.473282434559157E-3  -8.279451344748445E-1   3.514125145388339E-1  -4.210959750381721E-1  -7.807941648295316E-1   8.411224326092504E-2   1.274963202824894E-1  
 1.000000000000000E9     8.360695720834194E-3  -6.552577695444908E-2   5.544235799787124E-1   6.928657951217688E-1   6.238175026947856E-1   6.295133385296733E-1   8.328183250649091E-2  -2.553865825761159E-2  
 1.050000000000000E9    -1.188669090111149E-1   4.638029461209296E-2   5.242572340353575E-1  -7.131304376359132E-1  -7.291230166635009E-1  -4.938496317314564E-1  -9.089290031015007E-2   2.893933951743294E-2  
 1.100000000000000E9    -6.007039106402966E-2   8.297005341634861E-2  -8.424610519893372E-1  -3.029294830429790E-1   8.319676790470956E-1   3.098217770573403E-1  -5.951666492058249E-2   8.307773682107732E-2  
 1.150000000000000E9    -8.246203818612106E-2   7.154785623009149E-2  -7.585333834615171E-2   8.904079304512012E-1  -8.838879739283120E-1  -1.915748402238886E-2  -4.284559857465262E-2   7.810349244586129E-2  
 1.200000000000000E9     7.931141069888421E-3   9.779513571278230E-2   8.677941795993330E-1  -1.463670780294285E-1   8.332125373494718E-1  -2.581991094077613E-1   7.388833309172117E-2   2.036676357853762E-2  
 1.250000000000000E9     8.279003968760001E-2   3.720689870034877E-2  -3.965167932274757E-1  -7.800842547539896E-1  -7.615727965165932E-1   4.203982298993291E-1   4.744262752080768E-2  -9.244395746083582E-2  
 1.300000000000000E9     1.138564471844110E-1   1.284374347472988E-2  -6.593317962747873E-1   5.689943806500372E-1   6.031944110784555E-1  -6.250654819458786E-1  -1.689634781746703E-2  -4.319935803698712E-2  
 1.350000000000000E9     1.073842766171344E-1  -1.474947567866081E-2   7.324821852350784E-1   4.690421914068279E-1  -3.756068938270009E-1   7.821561888334976E-1  -4.616180158274098E-2   7.253948806747529E-2  
 1.400000000000000E9     6.825190668029790E-2  -6.032041622669122E-2   2.882578625589470E-1  -8.175480788607356E-1   8.867645462647489E-2  -8.492542638484727E-1   3.607829213560844E-2   1.396673639814618E-1  
 1.450000000000000E9    -7.456229597747296E-2  -4.591177465143179E-2  -8.668366445932124E-1  -3.563572375319848E-2   1.105055019691272E-1   8.537500534858458E-1   4.374535824816365E-2   4.986769812974808E-2  
 1.500000000000000E9    -8.730958836677856E-2   2.528797896658273E-2   2.125478760532857E-1   8.417942777820308E-1  -2.899710397427418E-1  -8.125999504443011E-1   1.873726178351733E-2   2.780326680746816E-3  
 1.550000000000000E9    -1.269833220603180E-1  -3.066409314208101E-3   7.649766814144757E-1  -3.916226634782384E-1   5.176150930326734E-1   6.861549906227369E-1  -5.916905024398134E-2  -8.104712546927272E-2  
 1.600000000000000E9    -9.960775437887308E-2   1.276896274168442E-1  -5.831632427223953E-1  -6.197154844142025E-1  -6.528083699574737E-1  -5.395681282533388E-1  -1.149222894427637E-1   7.297389100787013E-2  
 1.650000000000000E9     4.148523221406970E-2   5.118803694862418E-2  -4.302592288090732E-1   7.411644201457175E-1   7.444179739756470E-1   4.158364666215427E-1   4.589842941466706E-2   6.101801882872088E-2  
 1.700000000000000E9    -2.742179866191997E-2   6.905769744643164E-2   8.280279320265129E-1   2.363705995683557E-1  -8.171564350000011E-1  -2.476880967087767E-1  -5.551553857909283E-3   8.700023582638381E-3  
 1.750000000000000E9     1.230929208987337E-1   6.083165707942483E-2   4.246956335055651E-3  -8.406238145690548E-1   8.383235050831862E-1   2.213369143623730E-2   7.081725247432803E-2  -2.314895932981980E-2  
 1.800000000000000E9     2.906293237227142E-2  -1.056905338594389E-1  -8.122749941922534E-1   2.161516839609918E-1  -7.975636257541807E-1   2.667320452259224E-1  -9.715501982285679E-2  -1.250235350755092E-1  
 1.850000000000000E9     2.616124758666687E-2  -1.176388953206034E-2   4.283530593635115E-1   7.365642599096585E-1   6.759525160599763E-1  -4.848083657289234E-1  -8.872382103377148E-2   1.024205269712454E-1  
 1.900000000000000E9     1.490586231877907E-2  -1.555383597511010E-1   5.779705779444915E-1  -6.107430568751399E-1  -5.994077324923710E-1   5.948105802098785E-1   2.712209346397308E-2   4.148517502409164E-2  
 1.950000000000000E9    -1.470855444883562E-1  -4.401662516193211E-2  -7.291731205280293E-1  -3.977266525945499E-1   5.013702303917199E-1  -6.809858304437807E-1  -7.915201254232309E-3   7.918749632220014E-2  
 2.000000000000000E9    -4.163037891596137E-2  -1.715099978308742E-3  -1.906386419182490E-1   8.174462066679817E-1  -2.015591788693663E-1   7.999152591425708E-1   1.005869286810545E-1  -4.712513273699632E-2  
 2.050000000000000E9    -1.377994764435294E-1   1.318378062086556E-3   8.381679361715543E-1  -1.305054469932855E-2  -1.712424090048109E-1  -8.084193669545432E-1  -1.143088908599678E-1  -1.063456185150436E-1  
 2.100000000000000E9     3.505192845645238E-3   1.020198449944728E-1  -2.334407591868236E-1  -7.905872685837726E-1   2.863989222071550E-1   7.785352993087882E-1  -4.702770504987793E-2   3.622783443916616E-2  
 2.150000000000000E9     6.554963430932993E-2  -1.397917607453581E-2  -6.914374667478587E-1   4.787872466292873E-1  -3.231995261637956E-1  -7.664367634884088E-1   6.650058009639451E-3  -7.911195456306927E-4  
 2.200000000000000E9     5.454690946953371E-2   3.937516521277404E-2   6.162030371990949E-1   5.716546632333902E-1   5.262728520579717E-1   6.375601366839112E-1   6.726751311769609E-2   6.639977703570014E-2  
 2.250000000000000E9     1.249610620069825E-1  -3.491474539251849E-2   3.462088225445795E-1  -7.508811549827925E-1  -6.938630328192473E-1  -4.403129848444595E-1   9.010017955043016E-2  -6.528043846420301E-2  
 2.300000000000000E9     1.802933440446043E-2  -8.523837805034459E-2  -8.020912760610633E-1  -1.762700435251233E-1   7.573088172746428E-1   2.933504231288330E-1  -7.105702722378418E-2  -6.044908456818453E-2  
 2.350000000000000E9    -1.158474618231339E-2  -8.289201799817178E-2   6.948738327091346E-2   8.100640197010290E-1  -7.823349876442440E-1  -2.623425602923168E-1  -8.103830961121637E-2  -7.793821135163475E-3  
 2.400000000000000E9    -5.883104081705767E-2  -1.341835805777396E-1   7.604379109903761E-1  -2.901240037232241E-1   8.211905428159162E-1  -3.313689897569880E-2  -5.244915394473804E-2   1.046992799144747E-2  
 2.450000000000000E9    -1.135967025036105E-1  -9.206810995683099E-2  -4.417757644129011E-1  -6.996429863802137E-1  -6.642660222762267E-1   4.662803499956246E-1   4.215471168163817E-2  -4.374263767694030E-2  
 2.500000000000000E9    -5.752731137731221E-2  -1.264934457254919E-2  -5.168532170872242E-1   6.277117573169280E-1   5.527988942246629E-1  -5.928001732979007E-1   4.332721015889879E-2  -1.039393694395459E-1  
 2.550000000000000E9     3.180566929221054E-2   6.218515045260603E-3   7.427327297746360E-1   3.360643948014220E-1  -4.986364172852185E-1   6.269085896972610E-1   1.100627139920786E-2  -1.010057448434692E-1  
 2.600000000000000E9     4.082987877074155E-2   5.027548580883833E-2   7.478345896876297E-2  -8.132251402266983E-1   3.093383526244508E-1  -7.516625755982439E-1  -5.530774452515160E-2   1.020596581034362E-2  
 2.650000000000000E9     1.400052423592762E-1   2.171226415901321E-2  -7.870231294576408E-1   7.779100258553123E-2   1.372758770088567E-1   7.769800025547954E-1   8.104734868073045E-2   8.218169948334961E-2  
 2.700000000000000E9     6.288804163052782E-2  -7.763463682119569E-2   2.932916234744861E-1   7.564839418441308E-1  -3.751225493758159E-1  -7.185948916688479E-1   8.349536859009338E-2  -2.067695883814970E-3  
 2.750000000000000E9     5.996935003431588E-2  -1.978145874720752E-2   6.399416495789216E-1  -4.981000276013940E-1   3.269530805382443E-1   7.372496602800235E-1   8.505951865234812E-2   1.813432749127958E-2  
 2.800000000000000E9     5.745626240527116E-2  -1.353317782867916E-1  -6.486202582330607E-1  -4.404114734911739E-1  -3.785667097428692E-1  -6.845338715752669E-1   3.000649109520831E-2  -9.848735789362316E-2  
 2.850000000000000E9    -9.385278923137660E-2  -6.126634517861431E-2  -3.279790399631409E-1   7.373777556948897E-1   7.076328642643162E-1   3.756887854170562E-1  -9.093730271825203E-2   2.949615442236955E-2  
 2.900000000000000E9     1.027041993393840E-2  -3.893340714552799E-2   8.012794419350188E-1   8.966347933531992E-2  -7.869601090625413E-1  -6.046059494108855E-2   6.593166315705075E-2  -6.262107234218540E-3  
 2.950000000000000E9    -8.674336359004935E-2  -3.525830442489548E-2  -1.278043875814513E-1  -7.856967131494131E-1   7.799445076135265E-1  -9.816485671356971E-2  -9.308087408938254E-3  -6.784646642225221E-2  
 3.000000000000000E9     4.066971968770966E-2   1.043394730030653E-1  -7.170932993571737E-1   3.436482472837004E-1  -7.432691527225660E-1   2.525628160287010E-1   8.862775766437793E-2  -3.335673847765172E-2  
 3.050000000000000E9     8.481620806208735E-2  -2.000320540477681E-2   5.255839769925506E-1   5.861450262323067E-1   5.805040551258852E-1  -5.377322057508245E-1  -1.882979256211702E-2  -9.227451710386349E-2  
 3.100000000000000E9     5.467718889749448E-2   7.695730518100591E-2   4.614869245224693E-1  -6.343398200201454E-1  -2.675037990504796E-1   7.136462409850771E-1   2.800202811633657E-2   1.242929158611425E-1  
 3.150000000000000E9     1.363002378512089E-1  -9.789320063176968E-3  -7.461979917334735E-1  -2.558328000371909E-1   2.187491856300367E-1  -7.550121304900922E-1   1.324051396875020E-1   6.091396385595688E-2  
 3.200000000000000E9    -9.464207549652269E-3  -1.908563841655664E-2  -2.984223297571662E-2   7.758724216217798E-1  -2.033506305087656E-1   7.529298633010777E-1   4.239149746403886E-2   5.833333557195057E-2  
 3.250000000000000E9     3.195182116705002E-2   3.058548078074412E-2   7.618606020746473E-1  -1.886038325514655E-1  -9.511226655185512E-2  -7.642609848182930E-1   7.364643169166078E-2  -2.728544945334087E-2  
 3.300000000000000E9    -2.539486168052903E-2  -3.702912420782381E-2  -3.452483491744501E-1  -7.051746892842211E-1   4.819500628148302E-1   6.019874040248593E-1  -8.276457678719741E-2  -3.989095321678580E-2  
 3.350000000000000E9    -2.126707808660647E-2   6.737605274667756E-2  -5.693487895571426E-1   5.152646342431447E-1  -5.521623435563600E-1  -5.250907190723912E-1  -3.366227466926412E-2   8.400803543120222E-2  
 3.400000000000000E9     3.672806807665795E-2   6.114538129873515E-2   6.675190362675481E-1   3.958120876021746E-1   5.566898321422291E-1   5.278183289346617E-1   5.583613573527513E-2   6.945367011806330E-2  
 3.450000000000000E9     3.987599854377904E-2   8.838656864969940E-2   1.862460212586236E-1  -7.540450762248311E-1  -6.966559381142515E-1  -3.055760230022295E-1   1.025567158188353E-1   5.313494969517979E-2  
 3.500000000000000E9     9.837183590111329E-2   8.648765130541609E-2  -7.671508935897842E-1  -3.025251038823709E-2   7.592352576747861E-1  -8.219732821243060E-2   9.387773183808520E-2  -1.529010082425275E-2  
 3.550000000000000E9     9.892544709554672E-2   5.200297053120530E-2   1.859450784339866E-1   7.476953051712558E-1  -7.254223573247739E-1   2.309063957104844E-1   1.100440102612571E-2   1.595175809548877E-2  
 3.600000000000000E9     3.754994542547309E-2   4.547034722392177E-2   6.652832408275672E-1  -3.868078905955526E-1   6.966983990956803E-1  -3.203898206620648E-1  -4.552114938565075E-2   8.485283748510221E-2  
 3.650000000000000E9     1.408731523649333E-2   7.618838602793472E-2  -5.767125533053688E-1  -5.121545473299086E-1  -5.139341655248301E-1   5.567800462894048E-1   8.309529148063740E-3   1.486564958680474E-1  
 3.700000000000000E9    -2.659410646586398E-2   5.046112974192230E-2  -3.710670312720799E-1   6.831119488873322E-1   1.646680144914232E-1  -7.403087106963023E-1   2.586404742860042E-2   7.618685718600286E-2  
 3.750000000000000E9    -6.664408026689997E-2   1.212487204833589E-1   7.308089832040596E-1   1.822347106782443E-1  -5.784640243055752E-3   7.504737072396147E-1  -3.852478029785070E-2   6.788745815820556E-2  
 3.800000000000000E9    -3.602035972614911E-2   1.011910317048953E-1  -5.775450956048284E-2  -7.590134697323092E-1   3.724968037481267E-2  -7.550890665948342E-1  -3.783407372831080E-2   2.995497450420385E-2  
 3.850000000000000E9    -8.455124068244821E-2   1.055474978796527E-1  -7.214329936429277E-1   2.487744970975575E-1   2.415042282169497E-1   7.196534280330381E-1  -8.349259514205754E-2   7.864266758626422E-2  
 3.900000000000000E9     3.273191106993879E-2   1.570327210096860E-1   4.168359564672823E-1   6.204536038345015E-1  -5.467729685482096E-1  -5.066837441531324E-1   5.649051792149711E-2   8.478147616201399E-2  
 3.950000000000000E9     4.286875044100675E-2   4.370276196545281E-2   5.049631476012906E-1  -5.646159650412608E-1   6.443484265782732E-1   3.867036714221868E-1   2.403154703122208E-2  -2.181487603122374E-2  
 4.000000000000000E9     2.608273466434305E-2   9.523237866330694E-2  -6.828034010475750E-1  -3.228250119845625E-1  -6.361462154668732E-1  -3.957522642271067E-1   2.243094875343381E-2   3.543120354038252E-2  
 4.050000000000000E9     9.032972898176124E-2   1.592875207695214E-2  -1.151841262216855E-1   7.240500492293637E-1   7.303721782866125E-1   1.550447467763241E-1   1.149672365703974E-2  -1.798398471206869E-2  
 4.100000000000000E9    -3.480021581067015E-2   3.575796893261172E-2   7.448546275707734E-1  -7.163358582238399E-2  -7.087138573603825E-1   2.252870908684354E-1  -4.132488236589377E-2   1.214926979366257E-1  
 4.150000000000000E9     2.082237988572706E-2   7.890521204983363E-2  -2.543540517398721E-1  -6.965329322257884E-1   6.540989125215508E-1  -3.641282668530795E-1   6.008625808423013E-2   1.243419783190229E-1  
 4.200000000000000E9    -9.424359951248085E-2   2.760828913975617E-2  -5.907961008145795E-1   4.360353022537704E-1  -6.572856297539363E-1   3.553939834281433E-1  -5.485233297261333E-2   5.087999855628152E-2  
 4.250000000000000E9    -1.280943354089116E-1   1.212779945245149E-1   5.781416835087210E-1   4.643136803495045E-1   4.912000658454981E-1  -5.641192882526415E-1  -6.045542291541846E-2   6.503996750389410E-2  
 4.300000000000000E9    -8.766129547867421E-2   5.535326238526853E-2   2.795096274776144E-1  -6.869854531647859E-1  -1.558907335728348E-1   7.316194895001842E-1  -1.311475965553023E-1  -1.110547527342847E-2  
 4.350000000000000E9    -9.841771786112645E-2   1.122901197976172E-1  -7.224702334438490E-1  -8.551154940582521E-2  -7.060572170690054E-3  -7.262868230812766E-1  -1.261230226492723E-1   7.692755179286223E-2  
 4.400000000000000E9     2.465974872997541E-2   6.903245212578042E-2   1.044548173762401E-1   7.284749504041544E-1  -9.954809732889888E-3   7.401840611074326E-1   3.113281228280831E-3   3.902875819361804E-2  
 4.450000000000000E9    -7.238941542766809E-3   1.644072310309932E-2   6.713457859698231E-1  -2.874779908591540E-1  -1.887401028610871E-1  -7.133134680672744E-1  -2.749281299777471E-2   3.965962970637980E-2  
 4.500000000000000E9     2.485336886997241E-2   5.761495393604329E-2  -4.638750996087494E-1  -5.528759808730427E-1   4.588588872618729E-1   5.695179163090416E-1   1.299399958287764E-3   6.676922691478686E-2  
 4.550000000000000E9    -3.067094597131612E-2   1.057735854988377E-3  -4.064293466550979E-1   6.047089554729564E-1  -5.822912321119024E-1  -4.386815120137009E-1  -1.025835606092893E-1   5.006324474822379E-2  
 4.600000000000000E9    -1.094076912215486E-1   3.317173785957049E-2   6.783631320243039E-1   2.391245356671032E-1   6.148882358396222E-1   4.004303946803569E-1  -1.330037368834996E-1   1.062814466976168E-1  
 4.650000000000000E9    -9.473394223854272E-2  -1.526686559276039E-2   7.738624487391910E-2  -7.180863201010165E-1  -7.039642732014982E-1  -2.074349599296165E-1  -6.870501153810259E-2   5.788273065730655E-2  
 4.700000000000000E9    -1.229897670344693E-1  -2.221539769227308E-2  -7.069107262642859E-1   1.555613566756050E-1   7.239156404785631E-1  -7.384570760316428E-2  -5.814955539700473E-2   2.627239337419032E-2  
 4.750000000000000E9    -6.235909746874038E-2  -5.775020735357614E-4   3.391354904166429E-1   6.338940515668364E-1  -6.807514333199916E-1   2.538231011431451E-1  -1.843092409510304E-2  -1.631954558235790E-2  
