#  HZ   S   RI   R     1.00 
! Rohde & Schwarz ZVA67 4Ports - Version 4.11 - 1305.7002k04 SN: 101032
! Date: 2023-06-01 16:41:53
! Measurements: S11 S21 S12 S22 
! 
 1.000000000000000E8     1.489794777485864E-1  -1.354039527375876E-1  -8.284482008357453E-1   5.210922563914410E-1   8.606770298976141E-1  -4.628811932243420E-1   4.829394857421743E-2  -1.119945044203899E-1  
 1.500000000000000E8     8.388643337651688E-2  -1.244450982412839E-1   6.433472456042216E-1   7.291077434881148E-1  -6.525076295297587E-1   7.146730386801546E-1   3.115380942941302E-2   1.778672547639484E-2  
 2.000000000000000E8    -6.374937773322734E-2  -7.311993850260823E-2   5.201572223527167E-1  -8.170530634819198E-1   4.174705343182570E-1  -8.513640773485476E-1   9.182328555740543E-2   9.511004168958095E-2  
 2.500000000000000E8    -6.435184277628740E-2   3.828280926167491E-2  -8.877887190680277E-1  -3.398791616371198E-1  -9.471821829925523E-2   9.403028659741267E-1   1.706513843105407E-1   8.939726476521354E-3  
 3.000000000000000E8    -2.686298002338570E-2   2.386590758075725E-2  -6.120772059387587E-2   9.474915127726352E-1  -4.666188457098162E-2  -9.505482267465882E-1   6.990904844678245E-2  -1.726480880820640E-1  
 3.500000000000000E8     6.926046120558888E-2   8.596821373642220E-2   9.321795204712975E-1  -1.510871326215939E-1   2.173787583513727E-1   9.178872586823588E-1  -1.409749691819828E-2  -7.035319027302264E-2  
 4.000000000000000E8     2.505281604865511E-1   1.491136244160198E-2  -3.267134415921363E-1  -8.791610979808409E-1  -4.677062257942398E-1  -8.113132303131565E-1   1.002394832345118E-1  -2.075328159165050E-2  
 4.500000000000000E8     1.728071492198532E-1  -1.480540482493205E-2  -7.569086044054714E-1   5.715819625706469E-1   5.968250795505349E-1   7.210316515304668E-1   9.279496681645424E-2   5.714377687702291E-2  
 5.000000000000000E8     1.971513783790256E-1   1.483499055965279E-2   7.245116984209870E-1   5.777566265778091E-1  -7.284180727441414E-1  -5.661741286841163E-1   1.930357536661122E-1   4.330725743779298E-2  
 5.500000000000000E8     3.175554933731915E-2  -6.663235415770470E-2   4.001548736464798E-1  -8.347163629047080E-1   8.798449965922504E-1   2.728465004093016E-1   1.659777818235807E-2  -7.500934302647508E-2  
 6.000000000000000E8    -2.674168861080215E-2   2.375796937372585E-2  -8.994217838521330E-1  -2.076825130491234E-1  -9.105947896546932E-1   6.129033848562993E-2  -6.399665119969761E-2   6.182445027870984E-2  
 6.500000000000000E8    -5.267084265933144E-2  -8.555425585654224E-2   6.888662524568824E-2   9.161178027306567E-1   9.069648093291345E-1  -1.291209467218511E-1  -2.247226935580619E-2   1.859478195548807E-2  
 7.000000000000000E8    -1.396152116402173E-1   2.628908272728973E-2   8.599150081232398E-1  -2.535090074926004E-1  -8.807913399430097E-1   2.396616785804065E-1   2.928610516917868E-3   1.091918620396792E-1  
 7.500000000000000E8     4.268911389736154E-2   7.720416569030211E-2  -4.496307213685196E-1  -8.003446481369176E-1   7.768253784043896E-1  -4.569582447328152E-1   2.018550179565435E-1   7.057364227898860E-3  
 8.000000000000000E8     9.055117115520024E-3   7.138412113143863E-2  -6.519152270042564E-1   6.467953697158695E-1  -6.320602562299603E-1   6.299784832517835E-1   2.103943760137853E-2  -1.050300604423086E-1  
 8.500000000000000E8     1.555104122485712E-1   1.854879514835955E-1   7.608979689990344E-1   4.825958874189419E-1   4.445580714242884E-1  -7.852658280824709E-1   1.701362693774002E-2   3.899162659617654E-2  
 9.000000000000000E8     1.516392293496674E-1   7.476782613807513E-3   2.433062259900329E-1  -8.638195446311611E-1  -2.766732620473433E-1   8.582922055218697E-1  -2.588686085110920E-2   5.147948805464831E-3  
 9.500000000000000E8     6.393965881384052E-2   5.828849945505332E-2  -9.001359075331405E-1  -6.961028684663261E-2  -2.362161659919142E-2  -8.904358071793329E-1  -1.551068771616059E-2   1.637531361183015E-1  
 1.000000000000000E9     8.573111640059419E-2  -5.723970696271534E-2   1.518512339010191E-1   8.758117855671053E-1   2.525522712073545E-1   8.524311173527971E-1   1.032574499735555E-1   2.972066345808403E-2  
 1.050000000000000E9    -1.002136701845455E-1  -5.566234025174078E-2   8.082487295064581E-1  -3.548267010942476E-1  -3.910652476033030E-1  -7.895385933700591E-1  -6.420034804395815E-2  -3.681503195430246E-2  
 1.100000000000000E9    -4.064559348468752E-2  -1.241259372407102E-2  -5.559033928636670E-1  -7.039583013004155E-1   5.504234121115484E-1   6.987031172476812E-1  -3.662240081042045E-2  -8.631892735305257E-4  
 1.150000000000000E9    -1.082464777208641E-1  -7.308628836326997E-2  -5.580619679103319E-1   6.963831029316421E-1  -7.320252621915335E-1  -5.012624619216647E-1  -8.126198518078050E-2  -2.066968915145576E-2  
 1.200000000000000E9    -7.831455343776379E-2   8.887815233599677E-2   8.024521329590567E-1   3.725925751013220E-1   8.370475646972347E-1   2.520306117651002E-1   3.110769245766425E-2   1.215073533810105E-1  
 1.250000000000000E9     1.125163115224604E-2   8.542200625351099E-2   1.364932653040628E-1  -8.734610922516680E-1  -8.663491421033011E-1  -9.658361057296371E-2   1.335058798647340E-1   2.159149303856413E-2  
 1.300000000000000E9    -6.736581549180584E-3   1.650760053754060E-1  -8.823682327994562E-1   5.008038695764594E-2   8.643064151590333E-1  -1.410904941870649E-1   2.851614853547908E-2   2.028980938578960E-2  
 1.350000000000000E9     9.231445976481502E-2   1.392158123134460E-1   2.844340207214895E-1   8.217797795219480E-1  -7.887204145782490E-1   3.777258576103722E-1  -2.486572025372523E-2   2.222723902269549E-2  
 1.400000000000000E9     4.828927674479023E-2   4.765062605953031E-2   7.506383390739007E-1  -4.460792194596963E-1   6.254459473662524E-1  -6.071137165129655E-1  -1.244088780484944E-1   6.211627270943949E-2  
 1.450000000000000E9     2.190534183346555E-2  -2.382637682064528E-3  -6.243820481525065E-1  -6.107049235191837E-1  -4.804105292474324E-1   7.158251995178809E-1  -4.758216588664394E-2   1.122543916922538E-1  
 1.500000000000000E9    -1.436669361032418E-2  -7.246109626839696E-2  -4.279571480343165E-1   7.658941498912653E-1   3.399550233867668E-1  -7.981094105833454E-1   2.697717207480983E-2   4.532279301314714E-2  
 1.550000000000000E9    -5.631568407264419E-2  -7.565433157741985E-2   8.296387270135414E-1   2.525944945549931E-1  -1.073317107173610E-1   8.603518686721932E-1   4.540081296761950E-2  -1.959099375228487E-2  
 1.600000000000000E9    -9.713972880440962E-2  -3.488070679186160E-2   3.282115649536151E-2  -8.604371889067644E-1  -7.152362901825018E-2  -8.616103185222109E-1  -4.087430564364601E-2  -4.397955239427722E-2  
 1.650000000000000E9    -8.587249846091563E-2   1.054057875251518E-2  -8.435001302750462E-1   1.845364820067067E-1   2.024830308735350E-1   8.339147160435750E-1  -6.646928791094627E-2   2.917496284615020E-2  
 1.700000000000000E9    -1.344822382429612E-1   3.130071772502445E-2   3.697239050413667E-1   7.771463357601541E-1  -3.547374329942642E-1  -7.844222764425229E-1  -6.202562805063611E-2   5.148127317994138E-2  
 1.750000000000000E9    -7.765297873384003E-2   1.239869207441149E-1   6.563279456167674E-1  -5.471279534145548E-1   5.340840934351672E-1   6.581743917921336E-1   2.996543634606898E-2   9.528458443747080E-2  
 1.800000000000000E9    -5.201128147869993E-3   5.375912485539872E-2  -6.897155354236129E-1  -5.073612462145154E-1  -7.137121531856886E-1  -4.557756272318028E-1   6.208443323462116E-2  -6.359601281136607E-2  
 1.850000000000000E9    -2.180190921454538E-2   9.600047316242188E-2  -3.261881566341881E-1   7.858300593770526E-1   8.119516933065374E-1   2.429628171429623E-1  -8.884083729265216E-2  -3.942020169434853E-2  
 1.900000000000000E9     9.077657739237158E-2   8.619136129557593E-3   8.434074764167034E-1   1.143617807799506E-1  -8.357774768308284E-1  -1.457360556365583E-1  -7.788051482336854E-2  -3.363468345560939E-2  
 1.950000000000000E9    -3.891309953894124E-2  -8.866902150314941E-2  -9.471272986237245E-2  -8.352196585869064E-1   8.428142188208134E-1   3.909541956771694E-2  -1.778306382539898E-1   7.709668364886122E-3  
 2.000000000000000E9     7.387585031641197E-3  -2.983478982089829E-2  -7.943183775422560E-1   2.829239577972921E-1  -7.806864906321337E-1   2.796599214933568E-1   1.119475902093220E-2   1.201648018597663E-1  
 2.050000000000000E9    -6.951988969981192E-2  -1.631958842620321E-1   4.500986059692638E-1   7.195817916635182E-1   6.119515853285056E-1  -5.749564696396964E-1   3.523316197192750E-2  -7.560633045849620E-2  
 2.100000000000000E9    -1.487768332526054E-1   1.930053433616027E-2   5.472444046936217E-1  -6.136827034542990E-1  -5.363408551305975E-1   6.439902985266111E-1  -3.945846579953282E-2   7.421875602682451E-3  
 2.150000000000000E9    -5.321305494545576E-2  -2.622905070877633E-2  -7.489875649454796E-1  -3.841690884667648E-1   5.249414628837227E-1  -6.467697908334086E-1  -2.880069426885543E-2  -6.932853276905682E-2  
 2.200000000000000E9    -2.074869750039069E-1  -3.449566595613230E-3  -2.451214840026461E-1   7.895767762756628E-1  -3.394442760614961E-1   7.503659297546638E-1  -2.025921839600459E-1   3.848325078234505E-2  
 2.250000000000000E9    -4.709843288818782E-2   1.138716874978773E-1   8.295399310977545E-1  -1.368937748773037E-2   9.744553190653127E-2  -8.216665367921068E-1   1.904000434703553E-2   9.925837877923738E-2  
 2.300000000000000E9    -2.928944318549548E-2  -4.342324694807452E-2  -1.633011404505197E-1  -8.142765096207209E-1   5.184574238408343E-2   8.191929697683370E-1   1.059720016265610E-2  -8.033692860561016E-2  
 2.350000000000000E9     1.661539416559501E-2   5.610026835303047E-2  -7.444114403862544E-1   3.939715857536725E-1  -6.879533881885705E-2  -8.250185064054429E-1   5.791761398806822E-2  -2.474927951537434E-2  
 2.400000000000000E9     1.688813913014141E-1  -7.460858616714407E-2   5.594524307501151E-1   5.586706488614266E-1   3.062601101534799E-1   7.467147787278358E-1   4.306356711598034E-2  -1.533789881831524E-1  
 2.450000000000000E9     2.588985850629590E-2  -8.817758121020757E-2   5.006249059034149E-1  -6.582153509732071E-1  -6.685811458971145E-1  -4.708033992870007E-1  -8.203507050027911E-2   4.149682597160809E-2  
 2.500000000000000E9     7.653921440928210E-2  -6.102176845416164E-2  -7.687469278305721E-1  -2.987033624021399E-1   7.426731803068036E-1   3.454761372367006E-1   7.242190253269333E-2   6.526016605666732E-2  
 2.550000000000000E9    -5.459063756917889E-2  -1.445869488800743E-1  -1.086968793006434E-1   7.980551837651878E-1  -7.627208000653869E-1  -3.018649538910445E-1   9.766120031603921E-3  -1.141255917212564E-2  
 2.600000000000000E9    -1.016675602452647E-1  -4.677891237515915E-2   8.156937336888311E-1  -1.388536684188425E-1   8.043927490948192E-1   1.050966325567307E-1   4.388628997437911E-2  -3.966695576735588E-2  
 2.650000000000000E9    -7.335395800066670E-2  -8.233300967830913E-2  -2.778833870344490E-1  -7.866001093896694E-1  -7.582842366388735E-1   3.238779446749528E-1  -8.732550368483397E-2  -1.448533624126136E-1  
 2.700000000000000E9    -1.063760842830981E-1  -7.146474260381933E-3  -6.679159705763865E-1   4.587594540882640E-1   6.108543695599192E-1  -5.172425873706266E-1  -1.207026724559252E-1  -8.348548520325216E-3  
 2.750000000000000E9     1.057929881128474E-2   3.088846846573869E-2   6.192118993568576E-1   5.352500014103065E-1  -6.700554254234356E-1   4.532065850856808E-1  -3.158533279594247E-2  -2.486604648724528E-3  
 2.800000000000000E9     5.437981418693474E-2   3.036982685177184E-4   3.252160677835332E-1  -7.501521680874227E-1   6.302079514037774E-1  -5.080688458786915E-1   1.869066011991691E-2   1.969430696476575E-2  
 2.850000000000000E9     7.763953659567581E-2   9.747710950013309E-3  -7.820373153604773E-1  -2.008382395899909E-1  -2.770064950964438E-1   7.468189376268468E-1   7.958167046992952E-2  -3.524948299244528E-2  
 2.900000000000000E9     1.159381116269795E-1  -2.495048798815631E-2   6.400861768839868E-3   8.038206749888411E-1  -3.031792535185386E-2  -8.035714831730264E-1   1.992367731758475E-2  -1.678910490949952E-2  
 2.950000000000000E9     6.587769968327867E-2  -8.055239575846110E-2   7.824752671261814E-1  -2.127374346055816E-1   1.738624475095315E-1   7.830443996661110E-1   1.340977764707891E-2   4.165196260417973E-2  
 3.000000000000000E9     1.031281206490644E-2  -3.055665672672879E-2  -3.953777476568213E-1  -7.035146787316863E-1  -3.232519870174178E-1  -7.335834309288720E-1   7.477707640840177E-4   1.058802178925519E-1  
 3.050000000000000E9     2.952512636193389E-2  -6.511216183686990E-2  -5.827240521077703E-1   5.554788055701341E-1   5.664057801138794E-1   5.461140877914539E-1   9.416218760957783E-2   2.925953006303467E-2  
 3.100000000000000E9    -7.565954730664729E-2  -4.433370439234764E-2   6.663317196653028E-1   4.553404881614683E-1  -7.581849632072645E-1  -2.447648511460576E-1  -1.840853167623296E-2  -6.479226977580588E-2  
 3.150000000000000E9     3.140156241553049E-2   4.817044780432447E-2   2.586872328359501E-1  -7.523723796500874E-1   7.619469166998366E-1   2.199559038394689E-1   5.072590044523251E-3  -2.934707652269277E-2  
 3.200000000000000E9     4.752130507300102E-2  -2.798375720989558E-2  -7.889183813625225E-1  -4.712939216622251E-2  -7.420611304191526E-1  -2.359277536326660E-1  -3.046003028880850E-2  -6.005915216402920E-2  
 3.250000000000000E9     4.864322636681510E-2   1.074226349757393E-1   1.544009057617411E-1   7.802140485178134E-1   7.791587496442424E-1  -6.355355881699035E-2   2.368758613770521E-2   1.467639677544542E-1  
 3.300000000000000E9     1.814768172627843E-1   4.426333421018086E-3   7.222306870694611E-1  -2.876566008021679E-1  -6.501166210909924E-1   4.280436216435063E-1   1.709989000488591E-1   2.054123150642892E-2  
 3.350000000000000E9     2.577340487275300E-2  -5.663288813904941E-4  -4.737007197948225E-1  -6.324067562464413E-1   5.963801404157556E-1  -5.087628248574416E-1   3.647806864639368E-2   3.594467771852145E-2  
 3.400000000000000E9     1.256354756096737E-1   5.928471981783813E-2  -4.824864445750339E-1   6.254800970469395E-1  -6.003045414923277E-1   4.860163004791596E-1   9.524229972234768E-2   1.300391904635173E-2  
 3.450000000000000E9     2.479749852724219E-2  -1.042892458177886E-1   7.009751954266549E-1   3.055690915469330E-1   4.280797139539389E-1  -6.447302529060879E-1  -9.690335028230776E-2  -5.594041749588853E-2  
 3.500000000000000E9    -2.690225543282895E-2   5.139247403024568E-2   1.686729854280448E-1  -7.734256638261728E-1  -3.651656564535149E-2   7.612494045858929E-1  -1.566596456359387E-2   1.456357139394909E-1  
 3.550000000000000E9     4.057997286991973E-2  -6.810064071108438E-2  -7.872389158011250E-1   1.783424467435040E-2  -8.473633904737610E-2  -7.669070248369080E-1   5.976677763322641E-2  -1.188687246079988E-2  
 3.600000000000000E9    -1.014174489176077E-1   3.309856948247210E-2   2.121161108074016E-1   7.479968164188704E-1   1.629993312662348E-1   7.593004038785224E-1   6.123084676323441E-3   6.717857408931845E-2  
 3.650000000000000E9     8.776500534927920E-2   1.065456339048670E-1   6.489310620696220E-1  -4.213222986564025E-1  -3.936491800235688E-1  -6.434339388098126E-1   1.334332246304611E-1  -1.346493713145309E-2  
 3.700000000000000E9     3.965004131092924E-2   3.451406255782794E-2  -5.449005448618211E-1  -5.668475790659496E-1   6.867210864720484E-1   3.571665883712777E-1  -2.693464947724264E-2   9.562012172427652E-3  
 3.750000000000000E9     1.278730340849406E-1   1.513260616906975E-1  -4.426965287860232E-1   6.233581002171846E-1  -7.274493570741281E-1  -2.354458557627801E-1   8.276310074883414E-2   1.459058210955343E-1  
 3.800000000000000E9     1.499744530070091E-1   2.677613567283828E-2   7.505427544290277E-1   2.095550570382993E-1   7.187970475878960E-1   2.680230988095391E-1   4.736465948799895E-2   5.036905427153290E-2  
 3.850000000000000E9     3.050030631592770E-2   7.765369204696332E-2   3.122465340679838E-2  -7.773676461237150E-1  -7.592245019120580E-1  -1.731557593103456E-2   3.413681868798480E-2   1.270623198359964E-1  
 3.900000000000000E9     1.036496345010426E-1   3.748760622171507E-2  -7.539641712675554E-1   1.328835702623807E-1   6.902140787807300E-1  -3.317571523079044E-1   3.008800460821550E-2   7.650930349692072E-3  
 3.950000000000000E9    -3.681180813776046E-2  -1.359700447986683E-2   3.192762350582128E-1   7.005505798234967E-1  -6.062946205334900E-1   4.364662704599978E-1  -1.178621780332137E-1   6.664796012135626E-2  
 4.000000000000000E9    -5.188262506328845E-2   4.648905063478313E-2   5.910856416545240E-1  -4.861350885427859E-1   6.366498311529150E-1  -4.191741819833884E-1  -5.797758344864138E-2   8.790476436417527E-2  
 4.050000000000000E9    -6.811235523586012E-2  -1.388191475648398E-2  -6.123005848329081E-1  -4.464085502017869E-1  -4.762877945420978E-1   6.027416344867452E-1  -6.469274817616887E-2   4.679470756685219E-2  
 4.100000000000000E9    -8.917113789575874E-2   6.584070619498504E-2  -2.830217248520296E-1   7.082250556880052E-1   1.455657541188885E-1  -7.539959805736333E-1   5.004381907656194E-3   4.496349423364466E-2  
 4.150000000000000E9    -2.414441498040684E-3   8.016579522649223E-2   7.463142433652404E-1   1.140278706130439E-1   1.438630250595860E-3   7.651330534524184E-1   1.015332812607297E-2  -2.287692337007265E-2  
 4.200000000000000E9     1.222636614006841E-2   7.241939372391154E-2  -8.329278494117459E-2  -7.551312487222905E-1   3.618964201835550E-2  -7.601902810836311E-1  -1.790335418950631E-2   3.021964247530920E-2  
 4.250000000000000E9     2.020204144051707E-2   1.015097835790743E-1  -7.100326686512997E-1   2.566230930960060E-1   2.117315208557040E-1   7.295040879016278E-1  -2.888116154288741E-2   1.001925405307023E-1  
 4.300000000000000E9     3.566781122406786E-2   8.848638326742121E-2   4.213648335123660E-1   6.107032282965865E-1  -5.078503124661410E-1  -5.419826571766107E-1  -7.651207478183237E-3   1.440273579499801E-1  
 4.350000000000000E9    -1.590071274572804E-2   4.414741182355392E-2   5.011560766317266E-1  -5.609706856576417E-1   6.165565142413921E-1   4.397871985797415E-1  -3.373313516750266E-2   8.503545423901718E-2  
 4.400000000000000E9    -4.325309895669579E-2   3.696699355094072E-2  -6.615943695007325E-1  -3.501784518424225E-1  -5.934764286754397E-1  -4.658532415541358E-1  -5.855496252214654E-2   3.332673989336323E-2  
 4.450000000000000E9    -1.614070581160049E-2  -5.130579451961787E-2  -1.898243643805456E-1   7.134798738863362E-1   6.832628188549806E-1   3.037972785033671E-1  -2.986258977341686E-2  -3.944157614592101E-2  
 4.500000000000000E9    -8.550962555085957E-2  -4.055509343945641E-2   7.457309001510718E-1  -1.182101107444824E-2  -7.517814541530665E-1  -7.402541555947477E-3  -6.557850618977310E-2   1.962159683083715E-2  
 4.550000000000000E9    -1.649755649296615E-3   2.286581023140778E-2  -1.930150201856712E-1  -7.171339394498394E-1   7.333664976710477E-1  -1.552700784146922E-1   5.171383284537953E-2   7.123183072954074E-2  
 4.600000000000000E9    -5.509515490900364E-2   5.421108622349733E-3  -6.510800102363645E-1   3.558720141549284E-1  -7.276013638039977E-1   1.968146831120722E-1  -4.648895677549513E-3   4.195750332252810E-2  
 4.650000000000000E9    -7.437179881640055E-2   1.222052036339779E-1   4.823336701350172E-1   5.675245988056334E-1   6.448049332303046E-1  -3.645726773203061E-1   1.314324267741097E-2   9.551612329804619E-2  
 4.700000000000000E9    -1.262394033394022E-2   2.138147837759514E-2   3.895546773387490E-1  -6.248074871817209E-1  -4.787394835705222E-1   5.734847634988245E-1  -3.488039765232942E-2  -3.827548924091722E-2  
 4.750000000000000E9    -1.093712648787777E-1   3.645244358538571E-2  -6.948716360040170E-1  -2.309429762246372E-1   3.289133819483047E-1  -6.547483018291690E-1  -1.230073447610139E-1   2.817335032744506E-2  
