#  HZ   S   RI   R     1.00 
! Rohde & Schwarz ZVA67 4Ports - Version 4.11 - 1305.7002k04 SN: 101032
! Date: 2023-06-01 16:50:39
! Measurements: S11 S21 S12 S22 
! 
 1.000000000000000E8     1.041265819759163E-1  -1.370899813000164E-1  -7.110376350643632E-1   6.744826094894979E-1   7.497124495356367E-1  -6.214032065711778E-1   1.415092990037650E-2  -7.445665791068977E-2  
 1.500000000000000E8     6.094701995174437E-2  -1.131506147226422E-1   8.222952074042035E-1   5.150802468261917E-1  -4.195202282877097E-1   8.634798450121327E-1   9.302048881189393E-2   3.784543231614706E-2  
 2.000000000000000E8    -6.871237122756653E-2   2.421118196317611E-2   1.721786410161484E-1  -9.411409071798078E-1   7.705545211228364E-2  -9.456271239934858E-1   1.477057180969407E-1   3.727198433084323E-2  
 2.500000000000000E8     6.612609546983542E-2   1.260201755693273E-1  -9.260794421371873E-1   9.833073227448234E-2   3.433429577878830E-1   8.826816869908306E-1   1.764413938399806E-1  -6.058292700326247E-2  
 3.000000000000000E8     5.200373279486277E-2   4.577268002615145E-2   4.569292933212287E-1   8.295137858694118E-1  -5.452943477151182E-1  -7.594355282619468E-1  -8.280314205762779E-2  -1.226306062220614E-1  
 3.500000000000000E8     1.484448079758930E-1   4.534193772006903E-2   6.398683467832902E-1  -6.908165254329500E-1   7.253930578859967E-1   5.767058495914760E-1  -3.633388335933152E-2   1.010919578963755E-1  
 4.000000000000000E8     1.307277854161514E-1  -2.224005264151169E-1  -8.328749449867426E-1  -4.068946028297698E-1  -8.906667445183104E-1  -2.632489613465942E-1   9.445754670570734E-2  -7.152630087154327E-2  
 4.500000000000000E8    -5.783605638326139E-3  -1.210537364546930E-1  -5.614874848181024E-2   9.350494137123318E-1   9.296256910729336E-1   1.538000996201288E-2   5.038504734497457E-2  -4.334243190545085E-2  
 5.000000000000000E8     5.585698490271568E-2  -1.437895394190338E-1   8.891595039060180E-1  -2.465942866271091E-1  -8.834120176465420E-1   2.559840774930573E-1   9.442825145135529E-2  -1.164143118558687E-1  
 5.500000000000000E8    -5.202576360680937E-2   1.154865489534798E-2  -5.156949236179176E-1  -7.566854104233277E-1   6.710849338796272E-1  -6.164098147631862E-1  -5.538546725783408E-2   2.007489633497619E-2  
 6.000000000000000E8     1.152790932921805E-1   1.055953955214083E-1  -5.626010911524245E-1   7.106551789515140E-1  -3.402240110367667E-1   8.291157759950666E-1   1.530212088423687E-1   1.371444661733585E-1  
 6.500000000000000E8     8.840379785942265E-2   7.989851449440527E-2   8.823677655542348E-1   2.424871612651313E-1   1.745646239942623E-1  -8.973162301845945E-1   1.325658106449962E-1  -7.791814144340022E-3  
 7.000000000000000E8     1.446211450462849E-1   9.744479226460040E-2  -3.911753683182453E-2  -9.111036790375671E-1   3.530685090138592E-2   9.012591498381636E-1   4.087908816497259E-2  -1.976982472273357E-2  
 7.500000000000000E8     8.727036414922182E-2  -4.421189948707964E-2  -8.399471388748333E-1   3.218696158321446E-1  -3.227103400532162E-1  -8.354029739653736E-1  -7.976428973692723E-2  -1.194223564680373E-2  
 8.000000000000000E8    -6.324709863452815E-3  -5.897245674668825E-2   5.965657337100634E-1   6.653115399459080E-1   5.879906479257474E-1   6.719450104207582E-1  -5.235236230418729E-2   1.277646633623550E-1  
 8.500000000000000E8    -7.855872022159065E-2  -5.684420810174473E-2   4.506207613907755E-1  -7.647908894447107E-1  -7.904246498018501E-1  -4.048720436004686E-1   6.103567508929333E-2   9.977200202659092E-2  
 9.000000000000000E8    -6.405638030065564E-2  -9.481924137709643E-3  -8.844162719550862E-1  -1.386125070613255E-1   8.670925962934245E-1   1.473725440184965E-1   9.929584945445917E-2  -1.931852989040555E-2  
 9.500000000000000E8    -8.131797122843155E-2   3.548480309072043E-2   1.366474626110948E-1   8.759813852436663E-1  -8.484069788935169E-1   2.230344758260660E-1  -4.569458718000746E-2  -6.997566304240976E-2  
 1.000000000000000E9     5.601952649794429E-2   9.616874027919012E-2   7.650789167365341E-1  -4.220502373140838E-1   7.156059938992433E-1  -5.071501863289956E-1  -6.819449265014733E-3   6.365059131501771E-2  
 1.050000000000000E9     7.020187033722117E-2  -1.624831714845987E-2  -6.548701942258890E-1  -5.784569455995849E-1  -5.494689806383593E-1   6.751353953996212E-1   5.296035133467668E-2   8.464924086020034E-3  
 1.100000000000000E9     1.155692367089679E-1   4.420173718933674E-2  -3.280795673662350E-1   8.113064152947729E-1   3.267120784653217E-1  -8.067127405653293E-1   8.692042269671578E-2   5.543927871072254E-2  
 1.150000000000000E9     1.062405261895258E-1  -1.284048647539107E-1   8.538221231313560E-1   4.890260968083024E-2   7.672708338807688E-3   8.538809478109174E-1   7.855849021911653E-2  -8.300096912328024E-2  
 1.200000000000000E9    -8.664363504768803E-2  -1.428419775132504E-2  -2.321749981929117E-1  -8.360341328228285E-1  -3.446638997706795E-1  -7.833509074472710E-1  -1.238213992525341E-1   7.465132771311428E-2  
 1.250000000000000E9    -4.287012413628739E-2   3.301714518685446E-3  -6.980914836165838E-1   5.169987456298876E-1   5.472771887227412E-1   6.574225248062958E-1   2.953704180574518E-2   1.505434129803001E-1  
 1.300000000000000E9    -1.996406629158876E-1   7.207378304497945E-2   6.945006478010470E-1   5.101209848807966E-1  -7.478006325826088E-1  -4.272841532430758E-1  -3.327345247537064E-2   6.797632309530266E-2  
 1.350000000000000E9    -2.836298172036816E-2   1.707889779631126E-1   2.031786533294717E-1  -8.291476081257080E-1   8.428822333445039E-1   1.171538088012938E-1   2.356687290020484E-2   4.083113478588293E-2  
 1.400000000000000E9    -3.569157369745547E-2   5.046996355703451E-2  -8.560156376476542E-1   4.059354172518412E-2  -8.223859269969420E-1   2.279038796413302E-1  -1.047846105811063E-1  -7.699193446831339E-2  
 1.450000000000000E9     1.875187143243713E-2   6.647004859724202E-2   3.306805601122462E-1   7.807795423622258E-1   6.971667667512099E-1  -4.667601589697063E-1  -1.045416461553895E-1   8.408471505050218E-2  
 1.500000000000000E9     4.074265416730348E-2  -6.639279408654246E-2   6.184063570052665E-1  -5.877820600051010E-1  -5.451217918956616E-1   6.460744477778483E-1   1.641558123750032E-2   5.288959455482518E-2  
 1.550000000000000E9    -3.349304559608220E-2  -6.642173905537492E-2  -7.426679096445269E-1  -4.046773275304102E-1   2.725160906796590E-1  -7.995418647424474E-1   4.022989909059296E-2   1.717266269962755E-2  
 1.600000000000000E9    -7.137895909343242E-2  -4.073107547257501E-2  -1.231750448510465E-1   8.298281103258985E-1  -2.374164133176858E-2   8.409403698842246E-1  -1.816104577617143E-2  -4.355502472234803E-2  
 1.650000000000000E9    -7.997033900696143E-2   6.820367675472935E-4   8.222122259849365E-1  -1.679256842462010E-1  -1.856994491545289E-1  -8.126276008104777E-1  -6.549633852275555E-2   3.004639971075106E-2  
 1.700000000000000E9    -1.321058153405644E-1   4.378746781006744E-2  -4.181283694793126E-1  -7.232626531667467E-1   4.062167747752785E-1   7.308984833372174E-1  -4.901963299188062E-2   4.445965526440860E-2  
 1.750000000000000E9    -2.064179315407985E-2   1.353007066994189E-1  -5.312225565922345E-1   6.339060316669840E-1  -6.203378102650897E-1  -5.390673886594070E-1   4.285199603461255E-2   8.075712933511750E-2  
 1.800000000000000E9     2.161906208501055E-2   6.591015704983231E-3   7.744005881929190E-1   2.939247884135891E-1   7.827780352987003E-1   2.422694917502704E-1   3.729551103185309E-2  -1.082505826535773E-1  
 1.850000000000000E9     2.584007609951483E-2   7.448396784744084E-2   2.589318756530705E-2  -8.246528384435036E-1  -8.118073216823096E-1   6.057816959207653E-2  -1.284597555903454E-1   1.108245311884730E-2  
 1.900000000000000E9     8.768633003135971E-2  -1.024775041622424E-1  -7.771238951135749E-1   2.658499370491599E-1   7.881013987354331E-1  -2.369819316235451E-1  -3.645546706869682E-2   3.791345836004081E-2  
 1.950000000000000E9    -1.167384074949072E-1  -7.335276546674950E-2   4.979148424395229E-1   6.385959980296071E-1  -7.173365314601788E-1   4.030563840268264E-1  -9.564921450763748E-2   7.391541333495381E-2  
 2.000000000000000E9    -2.271363754471577E-2  -3.243824954477748E-2   4.459484932762203E-1  -6.839507107080638E-1   4.446635457684300E-1  -6.645353630800760E-1   9.924796454173675E-2   3.924377990668491E-2  
 2.050000000000000E9    -1.623281245645790E-1  -4.338999244806086E-2  -7.884821378113807E-1  -2.089775250820282E-1  -5.592706897667783E-2   8.039090760679356E-1  -5.991813838249984E-2  -1.338236047350539E-1  
 2.100000000000000E9    -2.472813373264458E-2   1.052246128865632E-1   6.918820458696615E-2   7.955650062849379E-1  -1.156723748113464E-1  -7.957287169123233E-1  -6.294604073467407E-2   2.811488074593187E-2  
 2.150000000000000E9     3.873967141194551E-2  -3.392661808103553E-3   7.305555375378247E-1  -3.675098840194332E-1   2.064730001933142E-1   7.809749726155213E-1   3.309852837270534E-3   4.768870780777146E-3  
 2.200000000000000E9     4.626688356285712E-2   5.196059046823227E-2  -5.596043255319054E-1  -5.923135615020257E-1  -4.668558861715326E-1  -6.533963204252005E-1   4.898748173786630E-2   6.453319847648886E-2  
 2.250000000000000E9     1.072318372858283E-1  -3.728929603339443E-2  -3.323286948221906E-1   7.321610340238407E-1   6.745134199370120E-1   4.272533084087765E-1   7.637334686627903E-2  -5.224090169454883E-2  
 2.300000000000000E9     2.501492236653575E-2  -8.340878970947241E-2   7.885876504532440E-1   1.110290806123630E-1  -7.543484171990781E-1  -2.309981879898336E-1  -5.428182331989664E-2  -5.455311679754534E-2  
 2.350000000000000E9    -4.192863579897483E-2  -8.967712851367583E-2  -1.784953988084159E-1  -7.639776475767042E-1   7.852993617337147E-1   1.476220914307858E-1  -9.360756976148756E-2   2.851356720241744E-3  
 2.400000000000000E9    -6.724686989973491E-2  -6.717772375928770E-2  -6.593723382556953E-1   4.503200147610575E-1  -7.638956513334128E-1   2.037136357205074E-1  -6.958533263031398E-3   5.035993458587240E-2  
 2.450000000000000E9    -1.205170336378078E-1  -7.021423906368375E-2   6.033636254991078E-1   5.277733921787836E-1   4.922095944736754E-1  -6.102001284687447E-1   1.842404344991260E-2  -1.009512928099666E-1  
 2.500000000000000E9    -3.282745710062926E-2   5.373944592569967E-2   2.515044585178444E-1  -7.398369390040732E-1  -3.046707945631524E-1   7.213318474522031E-1  -3.119711676515877E-2  -6.771174099383340E-2  
 2.550000000000000E9     9.464261987710321E-2  -6.611942746343516E-2  -7.792961356598541E-1   1.471483452775631E-2   1.964722150316954E-1  -7.486823536391420E-1   1.287552371484207E-3  -1.007199241209987E-1  
 2.600000000000000E9     4.588502694382150E-2  -7.360855706238758E-3   3.094425339121071E-1   7.242831605843482E-1   7.763405881889622E-2   7.795516440507245E-1  -4.826287074557449E-2   4.271022199638073E-2  
 2.650000000000000E9     1.747073915188064E-1  -1.100017735153210E-1   6.054253749385977E-1  -4.555227296941305E-1  -4.926962900449285E-1  -5.720437869362601E-1   1.818522475056896E-1  -2.123984422476433E-2  
 2.700000000000000E9    -4.769954276328228E-2  -1.426556619429445E-1  -6.675667910035850E-1  -4.052199895547702E-1   7.031469390637317E-1   3.307788691680397E-1   1.862306008822345E-2  -1.402617743802618E-1  
 2.750000000000000E9     4.383460261703801E-2  -1.848932860122417E-2  -1.544261515661737E-1   7.663665813412591E-1  -6.944980387682378E-1  -3.423631869082661E-1   4.916928242391588E-2  -2.133481752073643E-2  
 2.800000000000000E9    -3.415995118655051E-2  -1.069602711535287E-1   7.534989592910923E-1  -1.265223781816525E-1   7.251566511876165E-1   2.296397548381830E-1  -1.752169097893405E-2  -7.868144485682435E-2  
 2.850000000000000E9    -3.871931869587373E-2   9.261530908123754E-2  -3.411097820668882E-1  -6.986178942700161E-1  -7.165584193424444E-1   2.652890781911039E-1   1.289984415042082E-3   9.964595836142816E-2  
 2.900000000000000E9     6.152140538228001E-2  -1.641492486015184E-3  -5.303748013468836E-1   5.579375903189348E-1   5.132528530182495E-1  -5.602322325691246E-1   7.142965103311146E-2  -3.377959112170755E-2  
 2.950000000000000E9     2.241504881720097E-2   3.149840727205263E-2   7.022495754802781E-1   3.148589785778676E-1  -3.421215185515522E-1   6.769683448632987E-1  -6.671026582912037E-2  -2.007917111235663E-3  
 3.000000000000000E9     9.385149864216308E-2  -1.503412047125303E-2   5.329148567381299E-2  -7.598015952105117E-1   1.321247839906675E-1  -7.530477329462955E-1  -2.749988126189600E-2   4.270153519152593E-2  
 3.050000000000000E9     4.523361181826580E-2  -7.172507162919646E-2  -7.317184226082709E-1   2.059769601214024E-1   2.356181532445794E-1   7.156717392727486E-1   2.144179916719063E-2   2.965807318408766E-2  
 3.100000000000000E9     6.254336244830703E-5  -6.434084149676521E-2   4.122478539814138E-1   6.440175865387308E-1  -5.684084861414070E-1  -4.977555297502348E-1   4.744503816622385E-2  -3.579703641000357E-2  
 3.150000000000000E9     2.452418749643827E-2   9.030092156559791E-3   4.415665152886703E-1  -6.107712050373597E-1   6.301268911282284E-1   4.100501056277540E-1   5.206459574931423E-2  -5.091230452493916E-2  
 3.200000000000000E9     4.362859663919057E-2  -1.271834938190806E-2  -7.219540058313892E-1  -1.934258579050028E-1  -6.441302435670679E-1  -3.555817968266882E-1  -5.812432114820070E-3  -6.444646605728072E-2  
 3.250000000000000E9     4.353239120723205E-2   1.033620759327059E-1   6.769316985981334E-2   7.474609943280152E-1   7.394418378213249E-1   1.786685320500468E-2   8.113270923329311E-3   1.329840547958212E-1  
 3.300000000000000E9     1.667597483855892E-1  -2.043536967152713E-3   6.843391236238955E-1  -2.663956139627713E-1  -6.164320495897319E-1   3.975489270086904E-1   1.633910157018375E-1   2.004175870611537E-2  
 3.350000000000000E9     1.734516320668067E-2   8.797875297665871E-3  -4.954200318619766E-1  -5.543795860701875E-1   5.152926447738727E-1  -5.267452137821665E-1   2.308244491100931E-2   2.294672467024215E-2  
 3.400000000000000E9     1.265716675462170E-1   3.367299550417796E-2  -3.377156201089607E-1   6.600486430605648E-1  -4.737604029309583E-1   5.544228457160622E-1   8.060066414628549E-2   2.410845277073648E-2  
 3.450000000000000E9    -3.613815069442070E-2  -7.699469193657246E-2   7.175699658014566E-1   9.896025904423254E-2   2.202694927904792E-1  -6.978004311409796E-1  -9.686507555791928E-2  -8.068899534050237E-3  
 3.500000000000000E9    -4.653780967024174E-3   9.356149393610808E-2  -1.210498193702290E-1  -7.305639782720925E-1   2.234233060305267E-1   6.751029546201988E-1   3.280703407845002E-2   1.690819444761995E-1  
 3.550000000000000E9    -1.975779725112020E-2  -2.556434122136905E-2  -6.488277045513747E-1   3.530495440687053E-1  -3.968549053798039E-1  -6.047413605183579E-1   6.263032998335766E-2  -2.172828329171470E-2  
 3.600000000000000E9    -5.748367346272143E-2   1.143429250726463E-1   5.483746056745541E-1   4.853920156245362E-1   5.098913381231222E-1   5.167129253333072E-1  -3.069263555885862E-2   2.711582349502668E-2  
 3.650000000000000E9     6.744412550198017E-2   4.142184466981754E-2   2.420421787320453E-1  -6.844613770863823E-1  -6.788005224147340E-1  -2.498476351108933E-1   1.690848841924897E-2  -1.113468643783158E-2  
 3.700000000000000E9     1.889183392060731E-2   2.220507555533879E-2  -7.367486059506339E-1  -3.333714257875299E-2   6.936528092206870E-1  -1.992642446386802E-1  -4.053801582270283E-2   3.552502838268474E-2  
 3.750000000000000E9     5.827180478780335E-2  -1.175405656746542E-2   1.891268985157404E-1   7.093174036076102E-1  -6.117389769945546E-1   3.766504655848880E-1   5.457292629598712E-2   5.509885653047885E-2  
 3.800000000000000E9     5.176510345063377E-4  -2.977470253526620E-2   5.611875585116447E-1  -4.575202920717957E-1   5.891609374889145E-1  -3.956394364192081E-1   4.798993902065776E-2  -1.539174378413850E-2  
 3.850000000000000E9    -4.207810016388097E-2  -7.569169419399453E-4  -6.088193463725453E-1  -3.853192469415443E-1  -3.744584081912453E-1   6.107549762184197E-1  -3.237467391753089E-2   8.222884746904439E-3  
 3.900000000000000E9    -3.989210426101071E-2   8.953986484552860E-2  -1.612195003176709E-1   6.984111191820741E-1  -2.352803591722843E-2  -7.043121766993454E-1   1.801305999037880E-2   1.017273607151805E-1  
 3.950000000000000E9     7.720061662365310E-3   6.835257676545768E-2   7.128403416077466E-1  -6.673570989970988E-2   2.065160772371184E-1   6.793885462462589E-1   4.308397905097044E-2   6.073456961848210E-2  
 4.000000000000000E9    -4.230842022272817E-2   1.337902742585408E-1  -3.063433996122345E-1  -6.426273424861387E-1  -2.449501824483102E-1  -6.659390642923325E-1   2.032269329079296E-2   1.194900218188220E-1  
 4.050000000000000E9     7.892831841316757E-2   1.092548334983016E-1  -4.676387564842817E-1   5.139504095278824E-1   4.859661365801429E-1   5.054876083060423E-1   6.641205175084176E-2   2.045923807663577E-2  
 4.100000000000000E9    -4.373549769848618E-2   5.605726656421480E-2   6.448372381843956E-1   2.880780862651829E-1  -6.873673168092016E-1  -1.503095722455591E-1  -1.076380278234630E-1   9.106097398574878E-2  
 4.150000000000000E9     3.752813538489503E-2   1.050798450663696E-1   6.907903646905085E-2  -6.920652803831265E-1   7.002539761541423E-1  -3.284904866232211E-2   9.883545005600982E-3   1.633534401822958E-1  
 4.200000000000000E9    -8.500711391793399E-2  -3.539966121180666E-2  -6.623306176698867E-1   1.809490749335736E-1  -6.986530253499085E-1   7.152350336024353E-2  -6.561748694637734E-2   9.265990297411960E-3  
 4.250000000000000E9    -1.378890550482126E-1   9.306434772573602E-2   3.897728635910415E-1   5.769543020198009E-1   6.061975840254950E-1  -3.605456683010643E-1  -5.936578026887407E-2   7.652365218015990E-2  
 4.300000000000000E9    -7.986495175750291E-2  -1.637989335046710E-4   4.112876151041230E-1  -5.636185473052243E-1  -3.230313888348903E-1   6.313905982210598E-1  -7.254641139596139E-2  -6.630297692709472E-2  
 4.350000000000000E9    -1.193471498454384E-1   1.153238389458172E-1  -6.550239598660965E-1  -1.859311267439645E-1   1.091316549887601E-1  -6.714267278765557E-1  -1.478238963468010E-1   5.569911450078219E-2  
 4.400000000000000E9     3.219998953035749E-2   6.467876371381537E-2   3.699963403563000E-2   6.900006960632056E-1  -8.294571577989982E-2   6.930742632611828E-1   1.434666642288616E-2   6.468188547022231E-2  
 4.450000000000000E9    -2.672057667475086E-2   2.257552631602282E-2   6.377014780859177E-1  -2.551042667555319E-1  -1.552019669846940E-1  -6.755699234920550E-1  -3.314838968070592E-2   1.653188346285148E-2  
 4.500000000000000E9     2.783990525818396E-2   4.441997962997159E-2  -4.599750286369360E-1  -4.946196254766921E-1   4.523651358808896E-1   5.162970882877910E-1  -1.618445568226668E-2   7.961729660034153E-2  
 4.550000000000000E9    -4.093786175966954E-2   7.927331036595849E-3  -3.091159846207870E-1   6.084822975162834E-1  -5.926739218607255E-1  -3.473778217617850E-1  -6.075963557908205E-2   5.444845305603251E-2  
 4.600000000000000E9    -8.197546943608022E-2   3.367589747234061E-2   6.704799200756056E-1   9.749132408129425E-2   6.366223166600077E-1   2.631259520181977E-1  -1.143624803416997E-1   9.129995175707265E-2  
 4.650000000000000E9    -1.109021847985972E-1   2.394206243389193E-2  -1.046031258549921E-1  -6.686437897613512E-1  -6.835490681488746E-1  -1.685580661151148E-2  -3.660060690827806E-2   9.342725795170546E-2  
 4.700000000000000E9    -7.324009610788368E-2   1.483381419175187E-2  -5.723134712538778E-1   3.614847882848157E-1   6.209429369491567E-1  -2.851210766591672E-1  -4.078026140230825E-2  -1.548488344350614E-2  
 4.750000000000000E9    -9.554828736690568E-2   8.325217646614055E-3   5.257414312350915E-1   4.158785738908684E-1  -4.889307099681956E-1   4.634072137377733E-1  -8.916938524864412E-2   7.999089865654801E-3  
