#  HZ   S   RI   R     1.00 
! Rohde & Schwarz ZVA67 4Ports - Version 4.11 - 1305.7002k04 SN: 101032
! Date: 2023-06-01 16:38:28
! Measurements: S11 S21 S12 S22 
! 
 1.000000000000000E8     1.510485005216802E-1  -1.347798649411137E-1  -8.282008364655340E-1   5.233606039403420E-1   8.694865002016575E-1  -4.447228887098099E-1   5.007442851884843E-2  -1.133186460114063E-1  
 1.500000000000000E8     8.578621533539517E-2  -1.253060309963817E-1   6.415377816497243E-1   7.305816518094032E-1  -6.711249150477391E-1   6.967206918778953E-1   2.912555312317009E-2   1.641603965936395E-2  
 2.000000000000000E8    -6.257370368949237E-2  -7.680905388382396E-2   5.262114160295323E-1  -8.134613619543225E-1   4.438252676624683E-1  -8.385313483430604E-1   8.785249132266827E-2   9.521541239948349E-2  
 2.500000000000000E8    -6.630207218873935E-2   3.059555981761325E-2  -8.847144487739700E-1  -3.508978443783762E-1  -1.278740358320932E-1   9.364900649142552E-1   1.675978030993892E-1   1.378213196431910E-2  
 3.000000000000000E8    -3.221715745327659E-2   1.979107867740323E-2  -7.714982679837318E-2   9.461324571979137E-1  -8.419677792982597E-3  -9.524616213545378E-1   8.072058832499578E-2  -1.713512391325305E-1  
 3.500000000000000E8     6.677659103744556E-2   8.733534470522796E-2   9.346021045930638E-1  -1.301881404697824E-1   1.763970862520733E-1   9.268828895085750E-1  -1.052306826954160E-2  -7.728995470273428E-2  
 4.000000000000000E8     2.449203810142210E-1   2.471894450876465E-2  -3.032182880749057E-1  -8.881876514712804E-1  -4.281051758065483E-1  -8.334651801580879E-1   1.013028942849040E-1  -1.540288193993118E-2  
 4.500000000000000E8     1.728348236068805E-1   2.174522128142297E-3  -7.769496858541148E-1   5.442638126013327E-1   5.589667198048258E-1   7.513241846628318E-1   8.895602666369157E-2   5.751736741990352E-2  
 5.000000000000000E8     1.980180995182556E-1   2.269773067760671E-2   7.011914810287067E-1   6.045753475166615E-1  -6.961997216806719E-1  -6.064803978901727E-1   1.858953904505436E-1   5.885395561730590E-2  
 5.500000000000000E8     3.181534266073780E-2  -6.217370213588903E-2   4.367735959851979E-1  -8.162225440520553E-1   8.618419327861143E-1   3.256800566826599E-1   2.960992678370883E-2  -7.757959490413099E-2  
 6.000000000000000E8    -1.782798223422336E-2   1.466253167682249E-2  -8.890915319628956E-1  -2.531493363683707E-1  -9.130260351333452E-1   3.181995324658719E-3  -7.233867609530177E-2   4.755001833007067E-2  
 6.500000000000000E8    -5.093566271934549E-2  -1.031307340245116E-1   1.885983156176380E-2   9.174319031184685E-1   9.141688282379052E-1  -6.687863849503890E-2  -1.964361943131169E-2   1.392101391699825E-2  
 7.000000000000000E8    -1.360284811735824E-1   1.560667424443347E-2   8.731154425963872E-1  -2.039816829070575E-1  -8.955942153499477E-1   1.743608968473795E-1  -9.445931761341554E-3   9.894790962822288E-2  
 7.500000000000000E8     3.620579748239153E-2   6.465407536342037E-2  -3.964185162963066E-1  -8.278222115326507E-1   8.130280370693805E-1  -3.946632696666340E-1   1.999950720213584E-1   3.785575161262118E-2  
 8.000000000000000E8    -9.176585218308145E-3   8.003159903589578E-2  -6.963376630054649E-1   5.979165804587022E-1  -6.819058531163783E-1   5.755244328510484E-1   4.649906823081569E-2  -1.066327902867767E-1  
 8.500000000000000E8     1.447752856248168E-1   1.988625698468083E-1   7.234863318150816E-1   5.352843186577957E-1   5.123527912811082E-1  -7.435115756721910E-1   1.104029555142100E-2   3.840513193794772E-2  
 9.000000000000000E8     1.349253303582017E-1   2.323760333406581E-2   3.127035947939961E-1  -8.448208797898440E-1  -3.544418624189599E-1   8.297530799679630E-1  -1.456387312140247E-2  -1.454793583021232E-3  
 9.500000000000000E8     6.671021896533651E-2   7.897933447826135E-2  -8.897693064064702E-1  -1.459753755270778E-1   6.364192911421031E-2  -8.902944337059568E-1  -4.484243290343533E-2   1.498632718269612E-1  
 1.000000000000000E9     9.470540069705753E-2  -5.988913629733225E-2   7.361799083840259E-2   8.846916505102289E-1   1.654050998230025E-1   8.735830990960094E-1   1.026143944007784E-1   5.389605155919705E-2  
 1.050000000000000E9    -8.984088948757575E-2  -5.760524268439934E-2   8.385840175409651E-1  -2.786744445068944E-1  -3.060010591257628E-1  -8.257473162265955E-1  -4.645281782513321E-2  -5.618314805929860E-2  
 1.100000000000000E9    -1.515731491908306E-2  -3.370139622441998E-2  -4.804118879704000E-1  -7.560401308913887E-1   4.711525752398558E-1   7.548370706801276E-1  -3.397728745621195E-2  -4.459923900249691E-3  
 1.150000000000000E9    -1.063696437334433E-1  -9.608031956036905E-2  -6.262425289979148E-1   6.317791183110247E-1  -6.690159981516793E-1  -5.825457094474099E-1  -6.100718814408959E-2  -4.068289001354854E-2  
 1.200000000000000E9    -7.810886542243449E-2   7.982646804436558E-2   7.579830261361386E-1   4.579873137065176E-1   8.029132233045092E-1   3.506492252798791E-1  -4.806164088768093E-5   1.245150155563957E-1  
 1.250000000000000E9    -1.484382734918731E-2   7.390358636280232E-2   2.377922043442177E-1  -8.535012383969323E-1  -8.475826551179563E-1  -2.025478626071226E-1   1.356126964416211E-1   6.254941759041052E-2  
 1.300000000000000E9    -4.428841083894757E-2   1.816181152963992E-1  -8.817446245372834E-1  -5.690393286342961E-2   8.762771555978310E-1  -3.077271673892335E-2   2.810706952528826E-2   2.475619567593861E-2  
 1.350000000000000E9     7.000316929423267E-2   1.486800142257841E-1   1.824399132763664E-1   8.523226241161998E-1  -8.313539347398957E-1   2.718916394119749E-1  -2.213898558225320E-2   2.679962898789030E-2  
 1.400000000000000E9     2.236096423366515E-2   6.732379309604916E-2   8.034744376402330E-1  -3.450739064584351E-1   7.058665760718527E-1  -5.171268228378292E-1  -1.247142004794807E-1   2.347222558133444E-2  
 1.450000000000000E9     3.604556779266387E-2   1.560824488723605E-2  -5.346169522452966E-1  -6.893641318263033E-1  -5.752016765309088E-1   6.415996672508104E-1  -7.862160108631372E-2   1.024571602438836E-1  
 1.500000000000000E9     3.569366400018323E-3  -7.342743016008546E-2  -5.311468699797747E-1   6.984207961857559E-1   4.518103496513550E-1  -7.401454288501796E-1   2.488992987752830E-2   6.004664477202232E-2  
 1.550000000000000E9    -2.865023455998664E-2  -7.036578302874558E-2   7.857739213059060E-1   3.720054815842808E-1  -2.341384667397248E-1   8.350758537326462E-1   5.017429586496050E-2  -1.535721788330394E-3  
 1.600000000000000E9    -7.240127277405287E-2  -5.866280011871661E-2   1.617310837528850E-1  -8.469645662629081E-1   6.335595858729448E-2  -8.634014261832029E-1  -1.656538935160883E-2  -4.148220767988287E-2  
 1.650000000000000E9    -9.053959090338841E-2  -1.308670226405578E-2  -8.616064259870098E-1   5.070157032385639E-2   6.813211358551277E-2   8.559382703167768E-1  -6.791708045232070E-2   7.110538446325416E-3  
 1.700000000000000E9    -1.419907643249407E-1   2.338255590952411E-3   2.397922204868038E-1   8.254653251117439E-1  -2.210453046580309E-1  -8.309963771084057E-1  -7.859618004540236E-2   3.981036425232037E-2  
 1.750000000000000E9    -1.106151416471776E-1   9.863218544225337E-2   7.387468592018385E-1  -4.291006614157700E-1   4.169290987972024E-1   7.393807464053223E-1  -3.095178941500210E-4   1.071803330175977E-1  
 1.800000000000000E9    -3.977183261603444E-2   5.579619367373626E-2  -5.922949800492510E-1  -6.209866244382956E-1  -6.247897606337933E-1  -5.713912152248100E-1   7.514596466240761E-2  -2.939295171390519E-2  
 1.850000000000000E9    -5.186246486580737E-2   1.062167661221194E-1  -4.581051402021968E-1   7.148105418524701E-1   7.584665302459748E-1   3.832700512094633E-1  -6.999972228061654E-2  -5.764245430110523E-2  
 1.900000000000000E9     7.401861745894503E-2   3.192762125076911E-2   8.086024458679932E-1   2.652151900512610E-1  -7.967033337673789E-1  -2.932519444390591E-1  -6.740155564638030E-2  -5.101030641910880E-2  
 1.950000000000000E9    -3.373449509635817E-2  -6.808609211404870E-2   6.406068664723372E-2  -8.411840860711146E-1   8.195542621187834E-1   1.939239392604205E-1  -1.746355191759955E-1  -4.731922838024685E-2  
 2.000000000000000E9     3.346041093419791E-2  -1.690227067482979E-2  -8.319466636972213E-1   1.241818041123134E-1  -8.218826322730507E-1   1.284536946100848E-1  -4.356815708282501E-2   1.276769582267868E-1  
 2.050000000000000E9    -4.369189886595827E-2  -1.737345485619555E-1   3.001277986044106E-1   7.928176303580915E-1   7.124061496163818E-1  -4.436174661303216E-1   5.867909590075762E-2  -4.469978829926349E-2  
 2.100000000000000E9    -1.352539951127687E-1  -6.761149461989054E-4   6.621941410831409E-1  -4.958578644456321E-1  -6.524536337699903E-1   5.261899337122726E-1  -5.145227404785083E-2  -2.447075151753620E-3  
 2.150000000000000E9    -5.126594382928985E-2  -7.648183954903061E-2  -6.521461672511690E-1  -5.283300289441972E-1   6.460114937014875E-1  -5.309558445492331E-1  -5.607026461248129E-3  -6.080487564466158E-2  
 2.200000000000000E9    -2.313921456463493E-1  -4.788896275431608E-2  -3.996628078507916E-1   7.134298279525442E-1  -4.881310262212508E-1   6.603601345991699E-1  -2.088738374248099E-1  -5.076244177314736E-2  
 2.250000000000000E9    -6.346706524806674E-2   7.583790576937501E-2   8.178601472366416E-1   1.637092464999678E-1   2.693269372159609E-1  -7.802729762606848E-1  -4.029878151422794E-2   1.137408818644978E-1  
 2.300000000000000E9    -6.963102120834749E-2  -6.321360088326079E-2   2.613342302935725E-2  -8.246738106438583E-1  -1.233702161207733E-1   8.142586059374171E-1   4.832677476216635E-2  -7.060142225688934E-2  
 2.350000000000000E9     1.530674149306499E-3   9.692168231489788E-2  -8.178716059617911E-1   2.124989023357009E-1   1.158026778865269E-1  -8.259343345647429E-1   3.792863183179986E-2  -2.892751831540669E-3  
 2.400000000000000E9     1.613273172158871E-1  -5.032733507393650E-2   4.241176178881983E-1   6.742463996868878E-1   1.349354308975009E-1   7.926486734248613E-1   1.069959411752227E-1  -1.104894207180245E-1  
 2.450000000000000E9     1.852008346693408E-2  -1.949576547084634E-2   6.439398738629570E-1  -5.235475078958898E-1  -5.429392053540559E-1  -6.166096634818808E-1  -1.153638135059654E-1  -2.221465347007038E-2  
 2.500000000000000E9     1.175707315356031E-1  -5.352333892057255E-2  -6.698203733862572E-1  -4.743624330522858E-1   6.376473558694793E-1   5.102754559655724E-1   1.562860583993489E-2   1.098323567565329E-1  
 2.550000000000000E9    -5.445194014302528E-2  -1.635433157476247E-1  -2.971504001030463E-1   7.445238258996115E-1  -6.695264227073239E-1  -4.735341031742093E-1   1.955959471164856E-2  -3.016552894548354E-2  
 2.600000000000000E9    -4.163917535763395E-2  -6.775222180536437E-2   8.240664410314275E-1   6.967298058127285E-2   7.618531859253572E-1   2.973316193971446E-1   1.838832286131294E-2  -1.318419719218001E-2  
 2.650000000000000E9    -6.848511436015177E-2  -1.700085260785625E-1  -5.313901624238084E-2  -8.282060458183390E-1  -8.168374408937170E-1   1.130392744165489E-1   1.299470933316251E-2  -1.717941652497635E-1  
 2.700000000000000E9    -1.126358214673620E-1  -1.464286344855015E-2  -7.632098856873879E-1   2.739153101580222E-1   7.175070266127913E-1  -3.506770125063328E-1  -1.381706890797332E-1  -9.500694171128321E-2  
 2.750000000000000E9     1.296198890257245E-2  -1.914545166827092E-2   4.575469874274603E-1   6.791750833877654E-1  -7.656244383355916E-1   2.691098970165564E-1  -3.222602319857066E-2   6.465581653992321E-3  
 2.800000000000000E9    -1.696584475196168E-2   1.562178713917682E-2   5.287950643676911E-1  -6.294069809447725E-1   7.411609002184831E-1  -3.229751492109523E-1   1.489712041817889E-2  -1.499563948099323E-2  
 2.850000000000000E9     9.017726200093947E-2   4.886033252052515E-2  -6.987621303332868E-1  -4.000282571878208E-1  -4.675241093179203E-1   6.542109653085634E-1   5.429769924615679E-2   2.550710316193437E-2  
 2.900000000000000E9     7.341018390388984E-2  -6.986902435433346E-3  -2.153413756775939E-1   7.814514170879681E-1   1.910901537364376E-1  -7.792376517958372E-1   6.273111739807429E-2  -2.083376211059624E-2  
 2.950000000000000E9     9.443075353110235E-2  -9.245543636934060E-3   8.105161134698663E-1   1.908732777942299E-2  -5.648491200159318E-2   8.013685320852425E-1  -4.419858176598140E-2   1.346377659214223E-2  
 3.000000000000000E9     4.466528893367725E-2  -6.301303016790368E-2  -1.801170002474776E-1  -7.828714177516833E-1  -1.042018289151552E-1  -7.967577683865903E-1  -2.724092512404309E-2   1.089607567708996E-1  
 3.050000000000000E9     3.745563765804449E-2  -4.773112976265472E-2  -7.161938382823023E-1   3.691809855666722E-1   3.863157929895921E-1   6.927757016078332E-1   6.370069004785045E-2   2.040304059813972E-2  
 3.100000000000000E9    -1.095270908218728E-2  -9.590666924195224E-2   5.000906520026028E-1   6.368500803665564E-1  -6.503963892806901E-1  -4.639165593200991E-1   1.509440489927112E-2  -4.249299091958902E-2  
 3.150000000000000E9    -5.308534599923092E-4   2.265006962813580E-2   4.673232231346298E-1  -6.437576634257258E-1   6.635740377095957E-1   4.418123042838597E-1   7.385540276487915E-2  -5.527993049103065E-2  
 3.200000000000000E9     6.789122922934177E-2  -5.396594554079694E-3  -7.406741126508819E-1  -2.844601428169136E-1  -6.343808315608885E-1  -4.421548759142276E-1  -8.716367382888595E-3  -8.909189369297151E-2  
 3.250000000000000E9     6.741027104812746E-3   9.146962865763463E-2  -9.823706973837507E-2   7.923619614765521E-1   7.644498936563620E-1   1.740789911394045E-1  -1.563638793365938E-2   1.393443450915796E-1  
 3.300000000000000E9     1.555207311742143E-1   7.361979734505092E-2   7.738819775786240E-1  -5.003465910995097E-2  -7.515284774493839E-1   2.107148440433986E-1   1.319740976378468E-1   6.462680130088021E-2  
 3.350000000000000E9     3.543390055197696E-2   6.822373187999732E-3  -2.443320413741928E-1  -7.527631361056525E-1   7.278365104701036E-1  -2.903735260654966E-1   2.001612375257635E-2   7.202853296228234E-2  
 3.400000000000000E9     1.106202328686363E-1   1.011226224090907E-1  -6.624917590206022E-1   4.334913397818367E-1  -7.257065171513412E-1   2.695021826290821E-1   1.258611746404873E-1   4.109992597895352E-2  
 3.450000000000000E9     8.840560143034945E-2  -9.124077401267411E-2   5.663524299930844E-1   5.098276859764843E-1   6.130796327924292E-1  -4.643768357359688E-1  -4.154898344716426E-2  -1.153579204308938E-1  
 3.500000000000000E9    -3.019580586773388E-3   3.157560415095580E-2   4.161385216699811E-1  -6.749553868959742E-1  -2.889598097917476E-1   7.137041297643745E-1  -4.996118330348470E-2   1.076577873615112E-1  
 3.550000000000000E9     9.894021662595492E-2  -7.393237759576520E-2  -7.447523393155839E-1  -2.435837315595224E-1   1.819774968762617E-1  -7.526082963962977E-1   7.791194683111490E-2  -3.733784137637392E-3  
 3.600000000000000E9    -8.815841257218643E-2   5.081475760797297E-4  -4.400104095399426E-2   7.744614495568860E-1  -1.145656484896409E-1   7.718210649681142E-1  -2.162407881093162E-2   8.032107371328816E-2  
 3.650000000000000E9     8.498095963292797E-2   1.214989206235364E-1   7.518798073375445E-1  -1.842657519398393E-1  -1.454386655927451E-1  -7.341230351745255E-1   1.700847914604392E-1   7.498426195556410E-2  
 3.700000000000000E9     6.642290110048751E-3   5.133359438668175E-2  -3.264434913448353E-1  -7.192083638951172E-1   5.113703027797711E-1   5.857232067250839E-1   1.181859219491122E-3  -1.997735524536647E-2  
 3.750000000000000E9     9.212792363305718E-2   2.163838115144672E-1  -6.122150894930054E-1   4.318907659114525E-1  -5.851513450054123E-1  -4.837439028417947E-1   1.122087062438791E-2   1.874547197538046E-1  
 3.800000000000000E9     1.184190377415400E-1   7.106521618239817E-2   6.361783989628959E-1   4.565915802797436E-1   5.715775190513454E-1   5.151412009092929E-1   5.471015750908324E-2   6.484713702162109E-2  
 3.850000000000000E9     1.916896676142239E-4   1.524750970010712E-1   3.080773661541443E-1  -7.152251934384764E-1  -7.068711126644436E-1  -3.023558168338357E-1  -4.590585228151936E-2   1.373144028000684E-1  
 3.900000000000000E9     1.402744357098068E-1   6.270498441736090E-2  -7.446645249591575E-1  -1.438355727443255E-1   7.592928009161007E-1  -4.236690465485626E-2   8.606968604015799E-2   5.286485413655123E-2  
 3.950000000000000E9    -3.292217753673404E-2  -3.180702207785841E-3   4.339479604116975E-2   7.696532896756372E-1  -7.288105712658463E-1   1.804387844664170E-1  -1.031947686028612E-1  -4.286618416985827E-2  
 4.000000000000000E9     2.819053440796904E-2   4.717910826100778E-2   7.357863415891172E-1  -2.307922861550335E-1   7.482927255701211E-1  -1.480974082534215E-1  -7.923847007708400E-2   8.372760651455186E-2  
 4.050000000000000E9    -4.116586125682736E-2  -7.899676245222079E-2  -3.894920556125989E-1  -6.364430426680308E-1  -6.718467145008095E-1   3.700018179018684E-1  -1.245016362700456E-2  -1.254641993365292E-2  
 4.100000000000000E9    -5.615816313139768E-2   8.184642917919736E-2  -5.344852960021836E-1   5.426095218095419E-1   4.192260772397086E-1  -6.426603821213407E-1  -3.853346161036493E-2   7.588187511954084E-2  
 4.150000000000000E9     4.509024022056559E-3   2.335749061148606E-2   6.459931064003903E-1   4.006107073793432E-1  -3.091977948037196E-1   7.044875501456691E-1   1.041695760405007E-1   5.810658954945763E-2  
 4.200000000000000E9    -7.319717880357017E-2   1.258434017262418E-1   2.328524430412797E-1  -7.142792902794023E-1   3.287799986706042E-1  -6.841312425495769E-1  -2.466117370366370E-2  -6.145808444567002E-3  
 4.250000000000000E9     1.775534039992942E-2   1.303615517527064E-1  -7.533810812336632E-1  -4.369198700566288E-2  -8.754049599610397E-2   7.535361586942430E-1  -7.698378011980446E-2   1.446055474606028E-1  
 4.300000000000000E9    -7.769759082829855E-2   1.100091183085323E-1   1.376969570172451E-1   7.401038192118259E-1  -2.587499734096004E-1  -7.135609881919963E-1  -5.218656565854393E-2   8.342368864633941E-2  
 4.350000000000000E9     1.461359520685482E-2   1.175315990130750E-1   6.800876998501165E-1  -2.973104509963462E-1   3.750803422030991E-1   6.395137133509199E-1  -1.322773229698238E-1   9.623254697947178E-2  
 4.400000000000000E9    -3.148559063107777E-2  -1.281147887339162E-2  -4.595432138879396E-1  -5.887817078034190E-1  -3.529306478434984E-1  -6.735286998137893E-1   6.212651721588716E-3   6.695231184281852E-2  
 4.450000000000000E9     4.026096061176477E-3   3.213958797180541E-2  -4.765165831263333E-1   5.755248795375375E-1   4.958602501752626E-1   5.560854049438946E-1  -1.424898640836934E-2  -6.028699043942665E-2  
 4.500000000000000E9     1.680710134999642E-2  -6.681920122670496E-2   6.700601725580609E-1   3.057956628058171E-1  -6.752805036315015E-1  -3.263741494091836E-1  -4.448805759763048E-2   7.993271334344955E-2  
 4.550000000000000E9    -6.084364305909812E-2   5.314364337751269E-2   1.282315212518009E-1  -7.288322837283388E-1   7.338032876238475E-1   1.692713351677636E-1   1.912276846696888E-2   7.304996153069103E-2  
 4.600000000000000E9    -2.685234191117870E-2   2.775854369685641E-2  -7.444033891471249E-1   4.062786760386845E-2  -7.394955835112249E-1  -1.546074444617974E-1  -1.177937340311888E-1   9.142157196352697E-2  
 4.650000000000000E9    -1.638129499058639E-1   2.276329116559442E-2   1.720796955357739E-1   7.159421883605387E-1   7.386389383764521E-1  -5.429171635841486E-2  -1.504318779131090E-3   1.341731266447463E-1  
 4.700000000000000E9    -5.377295228607147E-2   5.666094890603319E-2   6.266387354006144E-1  -3.941068706786315E-1  -6.840793407459310E-1   3.059440299558897E-1  -4.698697902643610E-2  -5.147250889547871E-2  
 4.750000000000000E9    -1.061249150788261E-1  -4.256796524662056E-2  -5.200549562928480E-1  -5.207087675450327E-1   5.911157544265251E-1  -4.444386373518733E-1  -9.546673363087441E-2   2.711048590806993E-2  
