#  HZ   S   RI   R     1.00 
! Rohde & Schwarz ZVA67 4Ports - Version 4.11 - 1305.7002k04 SN: 101032
! Date: 2023-06-01 16:27:10
! Measurements: S11 S21 S12 S22 
! 
 1.000000000000000E8    -4.419776980184859E-2  -4.957648535845356E-1  -3.375053645140652E-1   1.500869145002912E-1   3.479215560551933E-1  -1.317378891802234E-1   7.222843894610938E-2  -1.395989763478615E-1  
 1.500000000000000E8    -2.668570552102694E-3   3.681025965101641E-1   1.869617807542776E-1   2.880815352128412E-1  -2.942412572217953E-1   2.031751292454949E-1   5.534685503962284E-2   5.041516994603840E-2  
 2.000000000000000E8     4.051898395949130E-1  -3.385812373188443E-1   2.632693623767374E-1  -2.308987332666672E-1   2.224385862046619E-1  -2.416361071704344E-1   1.367371023541271E-1  -7.276478567891842E-2  
 2.500000000000000E8    -3.885631569186092E-1   5.471825624742158E-2  -2.804330473972644E-1  -2.148353532412126E-1  -1.169863934133967E-1   3.192904191328887E-1  -1.200533154674403E-2  -2.717086259377189E-3  
 3.000000000000000E8     4.317398719012960E-1   1.864173637314479E-1  -1.537286584431562E-1   3.053129736329102E-1   9.684101652752536E-2  -3.431013490559867E-1   1.544960977748553E-1   1.709406568178322E-2  
 3.500000000000000E8    -1.447856685141271E-1  -3.937837642319734E-1   3.369661703542298E-1   8.292496743091399E-2  -8.862542676826231E-2   3.454670626196673E-1   3.399956833657932E-2  -9.538537822072801E-2  
 4.000000000000000E8    -1.619336103945053E-4   4.315229140889991E-1   4.675638834613697E-2  -3.442019928482658E-1  -1.033747647908546E-2  -3.429079674858033E-1   5.057180555960666E-2   8.026744128087286E-2  
 4.500000000000000E8     3.699950970749493E-1  -3.056267714681009E-1  -3.416690081602026E-1   2.857380505904313E-2   4.082861087689640E-2   3.248188199599051E-1   1.127517398756185E-1  -5.163747956400037E-2  
 5.000000000000000E8    -3.768013411028703E-1   8.359103132281348E-2   1.016669905149362E-1   3.275219687607185E-1  -1.188604308606856E-1  -3.233210752247440E-1  -2.963850795553454E-2   3.404875149760103E-2  
 5.500000000000000E8     4.283842923810368E-1   1.709982464145848E-1   3.037195913837349E-1  -1.456692289704765E-1   1.950289890814458E-1   2.836990131909445E-1   1.226365816592308E-1   3.788305949217145E-2  
 6.000000000000000E8    -1.960886179240769E-1  -3.566210055748833E-1  -1.988577183095918E-1  -2.839329534469537E-1  -2.644018726235883E-1  -2.320330872701109E-1  -2.704198130330594E-3  -6.376287178006768E-2  
 6.500000000000000E8     2.386959437992001E-2   3.998173688298505E-1  -2.217046098534174E-1   2.455210676749359E-1   2.503288029851530E-1   1.976553028363600E-1   3.941421360000850E-2   8.079817594600756E-2  
 7.000000000000000E8     2.992787307310990E-1  -3.377234004550744E-1   2.978795330722799E-1   1.719061411447043E-1  -2.821832279409742E-1  -1.685576157076590E-1   7.123780820843716E-2  -4.210518736016158E-2  
 7.500000000000000E8    -3.856761556836806E-1   9.034092735477675E-2   1.423834133659780E-1  -3.044619004402430E-1   3.275636652319489E-1   1.162396246900745E-1  -4.896510066641880E-2   6.099281688100205E-2  
 8.000000000000000E8     4.019935031482730E-1   1.622023956699090E-1  -3.328115794556132E-1  -5.447001389815667E-2  -3.368494616656080E-1  -8.122393473350391E-2   1.015613944904937E-1   6.313738149514594E-2  
 8.500000000000000E8    -2.085891618212034E-1  -3.022901357507978E-1  -1.239890816428517E-2   3.316867518708747E-1   3.232892916021976E-1  -6.329874891799499E-4  -1.289410425014752E-2  -1.357783802105708E-2  
 9.000000000000000E8     2.825143945439665E-2   4.397491417766135E-1   3.353308980430577E-1  -6.818207091719107E-2  -3.167082154546285E-1   6.245292838103354E-2   4.167422868531614E-2   9.130258533941826E-2  
 9.500000000000000E8     2.339021241702516E-1  -3.137904176580617E-1  -1.097009976734742E-1  -3.101839153448284E-1   2.997628834246755E-1  -1.586198824134925E-1   3.942085020217756E-2  -4.756060373315885E-2  
 1.000000000000000E9    -3.581845478977445E-1   1.730542793050670E-1  -2.856293202533496E-1   1.702268995797082E-1  -2.723388630944528E-1   2.001252451708198E-1  -5.120753180502586E-2   6.513476696255099E-2  
 1.050000000000000E9     4.091822636198149E-1   1.209094887293539E-1   2.261331486000742E-1   2.501967306892876E-1   2.493086348690186E-1  -2.277985570931270E-1   7.911430805203004E-2   4.081561212797691E-2  
 1.100000000000000E9    -2.161389741160239E-1  -2.759789985521316E-1   2.077057622621090E-1  -2.530300781570434E-1  -1.954513832080970E-1   2.444956207360748E-1  -3.027197678223484E-2  -2.001118543516493E-4  
 1.150000000000000E9     8.278201633348592E-2   4.001517004066790E-1  -3.029574057805581E-1  -1.442293667711012E-1   1.188813295461633E-1  -3.097039867741858E-1   4.334458656180699E-2   8.101017271350913E-2  
 1.200000000000000E9     1.809357235643360E-1  -3.409187192262819E-1  -1.074402997486168E-1   3.131188268489873E-1  -4.741734818808645E-2   3.330508896513544E-1  -4.264307388804538E-4  -4.631216173916707E-2  
 1.250000000000000E9    -3.629012394748185E-1   1.846179855406244E-1   3.320303821179067E-1   3.481481302458634E-2   3.683149509220139E-2  -3.379894809718409E-1  -7.425431533516556E-2   6.635873654815873E-2  
 1.300000000000000E9     3.510757275844136E-1   4.201683703069146E-2  -2.546933057597729E-2  -3.232688780312784E-1   5.256220668131358E-2   3.106819437493619E-1   2.844107592477655E-2   2.242469882176280E-2  
 1.350000000000000E9    -3.167834761921212E-1  -2.429112578286098E-1  -3.294541790730950E-1   8.605462651225015E-2  -1.255030136152091E-1  -2.967438739402249E-1  -6.047160136430113E-2   2.485314068430626E-2  
 1.400000000000000E9     8.916324852739069E-2   3.560225094875936E-1   1.340746758482412E-1   2.933244500973872E-1   2.156231889249281E-1   2.578065503831565E-1   4.832337261182099E-2   6.615823015947192E-2  
 1.450000000000000E9     8.120651415479160E-2  -3.511061080643693E-1   2.713919822260181E-1  -1.944191193535828E-1  -2.332784645095784E-1  -2.422582056286935E-1  -1.411067960311353E-2  -4.431236079595981E-2  
 1.500000000000000E9    -3.270606086511333E-1   2.554134641407445E-1  -2.432980071689255E-1  -2.196391884945901E-1   2.544708509568198E-1   1.981666673492786E-1  -5.061951831741392E-2   6.265744037301252E-2  
 1.550000000000000E9     3.396245468783378E-1   1.728665431689542E-2  -1.885462034353216E-1   2.740782540227469E-1  -2.924064466291773E-1  -1.225555822063584E-1   8.166976722115527E-3  -5.536774197204734E-3  
 1.600000000000000E9    -3.250185567369106E-1  -1.736723581082957E-1   2.988282586239126E-1   1.209686140612076E-1   3.219070972070041E-1   7.895289431527931E-2  -7.711296982804394E-2   3.660270829731789E-2  
 1.650000000000000E9     1.177087027917185E-1   3.553260272808186E-1   6.508841036718306E-2  -3.255935632317513E-1  -3.329341262191091E-1  -5.924373700347217E-2   3.641301114271756E-2   4.726343723230041E-2  
 1.700000000000000E9     7.033755196551399E-2  -3.526000455365267E-1  -3.256593896259525E-1  -4.859925742572205E-3   3.244469034083293E-1   2.614455904707649E-2  -3.253171580435983E-2  -4.625803025877674E-2  
 1.750000000000000E9    -3.024641560248368E-1   2.243241919181462E-1   5.097050812198629E-2   3.220795898597289E-1  -3.073084302116105E-1   4.597739347004921E-2  -2.791327696835089E-2   4.120151094395618E-2  
 1.800000000000000E9     3.335720939232033E-1  -6.270357510116527E-2   3.034944098836607E-1  -1.102667691589552E-1   2.907552335132027E-1  -1.408114572304862E-1  -7.517849270773132E-3  -5.105851447360012E-2  
 1.850000000000000E9    -3.548464950800743E-1  -1.724560172185408E-1  -1.686417931507893E-1  -2.809393252346587E-1  -2.664375246831767E-1   1.991759985727940E-1  -8.337638589762823E-2   2.553752640535983E-2  
 1.900000000000000E9     1.333267733360719E-1   2.906981035958703E-1  -2.468783114787770E-1   2.129298283193166E-1   2.664294533323439E-1  -1.998437535002144E-1   2.323828146020291E-2   1.613063087849084E-2  
 1.950000000000000E9     1.810266782682463E-2  -3.781708959399373E-1   2.525538013846904E-1   1.901980344443209E-1  -2.221860077888808E-1   2.101872198574872E-1  -6.086232319788887E-2  -3.909968562908046E-2  
 2.000000000000000E9    -2.918812512893987E-1   2.437346711006734E-1   1.504266798505076E-1  -2.943213997811433E-1   1.377716417733750E-1  -2.862397946551017E-1  -4.038287397654473E-3   3.836934559256421E-2  
 2.050000000000000E9     2.917260345064863E-1  -1.273481413194484E-1  -3.019346018854531E-1  -1.116205669229327E-1  -3.907679872683548E-2   3.302798282860538E-1  -1.798951684117798E-2  -7.634958562874986E-2  
 2.100000000000000E9    -3.743689406559743E-1  -9.603534095090241E-2  -2.202817516019683E-2   3.106694391522171E-1   2.958822134801932E-2  -3.225131950905378E-1  -7.323282335099643E-2   1.797475068615891E-2  
 2.150000000000000E9     1.509712518820764E-1   3.027891155359531E-1   3.376771787369702E-1  -2.124772806951496E-2  -4.668571466496083E-2   3.150579095235141E-1   2.761109260946696E-2  -1.701436461272902E-2  
 2.200000000000000E9     6.725682817141864E-4  -3.617010229449555E-1  -7.415278278739501E-2  -2.998392443040776E-1  -3.697885127937566E-2  -2.988847752972808E-1  -7.499808775581771E-2  -2.714185198081818E-2  
 2.250000000000000E9    -2.358075455482634E-1   2.622787166555259E-1  -2.879862087766231E-1   1.394220300680685E-1   1.139426807281599E-1   3.100350893130086E-1   2.287471531154870E-2   4.202881581019630E-2  
 2.300000000000000E9     3.347645865727207E-1  -1.362368621453459E-1   1.931099940244619E-1   2.659867177386568E-1  -1.390926393881020E-1  -2.929995762476882E-1  -3.327914167496106E-3  -8.433187044430460E-2  
 2.350000000000000E9    -2.845962526973812E-1  -2.068995181993091E-1   2.245867937600226E-1  -2.098342712624578E-1   1.098468883323574E-1   2.960833583793727E-1  -3.638437415454991E-2   1.482868567199403E-2  
 2.400000000000000E9     2.238251248706708E-1   2.260816153748139E-1  -2.844933299287825E-1  -1.403216145854672E-1  -1.954060420658457E-1  -2.341453220748017E-1   5.610967697567260E-2  -6.467224148014608E-2  
 2.450000000000000E9    -1.019818440734207E-2  -4.132704145539313E-1  -1.503765629298709E-1   2.836143697896430E-1   2.882727329220903E-1   1.180831206488867E-1  -7.045130423350914E-2  -2.932321465357006E-2  
 2.500000000000000E9    -1.633899476416136E-1   2.552564375720444E-1   3.059848598635337E-1   6.842857630443748E-2  -3.188403205180987E-1  -8.866221671295682E-2   6.075991518766642E-2   2.775245666054609E-2  
 2.550000000000000E9     3.118833704300358E-1  -1.866417965966858E-1   6.587238232376846E-4  -3.112565173964828E-1   2.957156885986594E-1   1.007096044529061E-1  -1.185831171145304E-4  -9.207046837424104E-2  
 2.600000000000000E9    -3.453367001337734E-1  -1.523070848605381E-1  -3.233388757123657E-1   5.304385975142927E-2  -3.087676436383312E-1  -3.577626881875077E-2  -1.139137722779947E-2   3.415577783682736E-2  
 2.650000000000000E9     2.518041732316758E-1   1.695287848067459E-1   9.696600371462012E-2   2.891307754811324E-1   2.765397139618075E-1  -1.174336963946679E-1   4.760936402118794E-2  -9.516360276194966E-2  
 2.700000000000000E9    -1.207414032633939E-1  -3.806564790064870E-1   2.779541034931192E-1  -1.612855453911370E-1  -2.644549195368324E-1   1.951964285108748E-1  -8.505330881889735E-2  -1.831726846649443E-2  
 2.750000000000000E9    -1.487499743570724E-1   2.804705343981065E-1  -1.982095715018368E-1  -2.497202003646892E-1   2.893872024345926E-1  -1.276157029817479E-1   6.950348747219494E-2   2.109462294951389E-2  
 2.800000000000000E9     3.224164210810343E-1  -1.789579064228970E-1  -1.689439796868277E-1   2.517867107055817E-1  -2.757535741815413E-1   1.287159912803510E-1  -1.705516797214828E-2  -8.518557479813521E-2  
 2.850000000000000E9    -3.345652442092446E-1  -6.323228953420113E-2   2.763783552170104E-1   1.747315988866983E-1   1.712426245944417E-1  -2.517224988978241E-1   1.784721897169563E-2   7.326064322302540E-2  
 2.900000000000000E9     3.142442972772626E-1   1.595495472091361E-1   9.252812802215787E-2  -2.901203498724861E-1  -9.230360185871561E-2   2.994851883712940E-1   6.958902816949074E-2  -7.801342763325850E-2  
 2.950000000000000E9    -1.003790712137086E-1  -3.435140704071692E-1  -3.131172555303194E-1  -4.261845993722065E-2   4.880831873265436E-2  -3.116124609339172E-1  -6.924474662715748E-2   3.213558471842268E-2  
 3.000000000000000E9    -6.724689463042383E-2   3.311195001420073E-1   1.848018922997588E-2   3.179191141151560E-1  -2.884798038178520E-2   3.097615244704642E-1   1.019114151856451E-1   3.228579472459544E-2  
 3.050000000000000E9     2.948944637054636E-1  -2.324355581672618E-1   2.934702109648323E-1  -6.955666671962146E-2  -8.687803148155755E-2  -2.930119698325190E-1  -4.026684669942217E-2  -5.230336357795528E-2  
 3.100000000000000E9    -3.057578063210071E-1   7.744596445001330E-2  -1.281108173124701E-1  -2.911645512678118E-1   1.824409162929079E-1   2.324900648576734E-1   6.368678890304835E-2   9.137907300182883E-2  
 3.150000000000000E9     3.575021140491890E-1   1.514671469399823E-1  -2.636855688506119E-1   1.689163554586304E-1  -2.060817806476664E-1  -2.465365125212902E-1   8.448775554233183E-2  -8.153129946688942E-2  
 3.200000000000000E9    -9.924225852268642E-2  -2.909088311319814E-1   2.154232839370550E-1   2.060566865056049E-1   1.579176713089396E-1   2.691190677867479E-1  -5.228499618097986E-2   5.493551087628014E-2  
 3.250000000000000E9    -7.876878509739324E-4   3.755686781925560E-1   1.627681463753752E-1  -2.727416567741975E-1  -2.251944890561496E-1  -1.978994084318949E-1   1.261647823891281E-1   2.985185305843217E-2  
 3.300000000000000E9     2.649718632054093E-1  -2.455623615967943E-1  -2.745531052925708E-1  -1.436407586768121E-1   2.877616472715322E-1   5.988970069009748E-2  -5.377810989218547E-2  -2.258223981906309E-2  
 3.350000000000000E9    -2.750112899873184E-1   1.310683674282900E-1  -6.713526447197656E-2   2.886524713171642E-1  -3.124077405133446E-1  -5.115852862464609E-2   5.887201678743537E-2   1.408797703021459E-1  
 3.400000000000000E9     3.654928573787486E-1   1.845663862873458E-1   3.209635528828849E-1   2.458298695655859E-3   2.971143739645866E-1   8.377781029879343E-2   7.449236569237761E-2  -5.384852625424443E-2  
 3.450000000000000E9    -1.118846942084490E-1  -2.570420204752344E-1  -3.590347481527986E-2  -2.998243917792332E-1  -2.993633705535236E-1  -1.109086030235268E-2  -3.836526468323470E-2   9.598841435237537E-2  
 3.500000000000000E9     6.914795590441571E-2   3.722772679220716E-1  -2.861623578405190E-1   9.548425484583287E-2   2.627377244808100E-1  -1.314716794133434E-1   1.382999044003504E-1   9.382054217699500E-3  
 3.550000000000000E9     2.258287937968263E-1  -2.573900012569478E-1   1.425266489417788E-1   2.812583043611618E-1  -2.560069654998840E-1   1.626570305879053E-1  -7.307200320423567E-2  -1.529724876933681E-2  
 3.600000000000000E9    -3.115247185899960E-1   1.541635710072312E-1   2.467888560384837E-1  -1.855980248213915E-1   2.587717065653302E-1  -1.815581050828198E-1   4.918899265133776E-2   1.526560636858375E-1  
 3.650000000000000E9     3.372591966428651E-1   1.302459106574569E-1  -2.329007658552658E-1  -1.813741644558123E-1  -1.976395812432407E-1   2.222874889440034E-1   1.672759944255441E-2  -3.923258400783865E-2  
 3.700000000000000E9    -2.579216380545165E-1  -1.622515765665067E-1  -1.641754329125195E-1   2.814632857283604E-1   5.720133955605290E-2  -2.929978498527737E-1  -3.279043754350888E-2   1.620181540034782E-1  
 3.750000000000000E9     1.070570970229606E-1   3.746228051949420E-1   2.704463405571519E-1   1.192156612579446E-1  -3.096130518671328E-2   2.961319830709201E-1   1.214214612580322E-1   1.934657812253121E-2  
 3.800000000000000E9     1.422795179090711E-1  -2.516767304255704E-1   3.560176738892355E-2  -3.021245596714912E-1   6.129738998355040E-2  -3.029798308896139E-1  -1.151944996131347E-1   5.185113845911117E-3  
 3.850000000000000E9    -3.112253315155713E-1   2.300727907725702E-1  -3.117388535298453E-1   1.548474660818835E-2   1.043413337437395E-2   3.000786499049147E-1   7.009595367655601E-2   1.441961803209812E-1  
 3.900000000000000E9     3.352250046392986E-1   8.435368164626567E-2   5.119755539978363E-2   2.948799095924520E-1  -1.364196302867066E-1  -2.728949424654433E-1  -2.182603635020479E-2  -5.542296142665572E-2  
 3.950000000000000E9    -2.743240623387103E-1  -1.101633021107002E-1   2.753191629516054E-1  -1.200127162319577E-1   1.549638188586502E-1   2.395965240550509E-1  -5.158625234067317E-2   1.731330382456631E-1  
 4.000000000000000E9     5.659941967038900E-2   4.049870235257659E-1  -1.679707355680582E-1  -2.602244632245471E-1  -1.538498499905957E-1  -2.687671046514383E-1   1.161541775932318E-1   1.027343483721638E-2  
 4.050000000000000E9     1.136738357448615E-1  -2.378878485206614E-1  -2.131655292605582E-1   2.041456045349724E-1   2.014830626897511E-1   2.288831427674232E-1  -1.387069696633167E-1   3.737143243165279E-2  
 4.100000000000000E9    -2.598624842875610E-1   3.027118937332867E-1   2.510497876059704E-1   1.601324263240776E-1  -2.757790731475747E-1  -1.300985270000559E-1   7.503497956751185E-2   1.397502553989376E-1  
 4.150000000000000E9     3.266663907805883E-1   3.105198416202619E-2   1.398288155740389E-1  -2.719094237951195E-1   2.772704529173049E-1   7.786097418068354E-2  -6.667370667453837E-2  -6.001772484719477E-2  
 4.200000000000000E9    -2.949398411080784E-1  -1.486091860710241E-1  -2.838954154838914E-1  -6.367459316557320E-2  -2.862883211877180E-1  -1.196260966940639E-1  -9.881612554422668E-2   1.711426513780932E-1  
 4.250000000000000E9     6.253329333563350E-2   3.562594831802404E-1  -1.931273384738169E-2   3.006848255918312E-1   2.986064258250922E-1   3.447572849041163E-2   8.450593199276411E-2  -3.535816965604441E-2  
 4.300000000000000E9     2.474324066931255E-2  -3.017682369834066E-1   2.974807503757545E-1  -3.407887615058312E-2  -2.945184873234479E-1   7.517679668685273E-2  -1.589736365486039E-1   5.550594729651419E-2  
 4.350000000000000E9    -2.588433283289774E-1   3.047421084673580E-1  -9.184203307101341E-2  -2.739126637026991E-1   2.691854977385252E-1  -1.216105890143023E-1   7.176070435307214E-2   1.167280002526904E-1  
 4.400000000000000E9     3.009969552760284E-1   5.716300522569347E-3  -2.696756816912695E-1   1.432100769611286E-1  -2.744342878403109E-1   9.148785716104067E-2  -8.792168434601994E-2  -9.455058137333131E-2  
 4.450000000000000E9    -3.302810496718646E-1  -1.608849361100807E-1   1.730251192585177E-1   2.322838755615180E-1   2.717121668142031E-1  -1.530123787449278E-1  -1.010662372675816E-1   1.760491284530259E-1  
 4.500000000000000E9     1.123615156610978E-1   3.150210464656717E-1   1.866683210830895E-1  -2.239934765287369E-1  -1.986547743582321E-1   2.170205043310540E-1   5.866939143395103E-2  -6.572150102297965E-2  
 4.550000000000000E9    -3.732555785857737E-2  -3.364217573914011E-1  -2.667956256333288E-1  -1.457093605627510E-1   1.711135136370491E-1  -2.452245178078564E-1  -1.862721984889593E-1   2.130266502220271E-2  
 4.600000000000000E9    -2.926969483296618E-1   2.352976335165238E-1  -1.075182651915237E-1   2.634532215292742E-1  -1.461339771527363E-1   2.428914981397303E-1   7.379659757524808E-2   8.866266760737093E-2  
 4.650000000000000E9     3.066372705331277E-1  -3.802082657798084E-2   2.913050931105575E-1   4.018698583500602E-2   1.232104811254101E-1  -2.839182342258099E-1  -1.068559243718913E-1  -1.263562111295761E-1  
 4.700000000000000E9    -3.506751305304319E-1  -1.644636328651422E-1   2.580545780177228E-3  -2.962401763526604E-1  -2.730014301893091E-2   2.905642243667375E-1  -6.106468167730365E-2   1.677741449321989E-1  
 4.750000000000000E9     1.507300518746713E-1   2.768820887647921E-1  -2.783178703176973E-1   6.263084408061274E-2  -1.937466323005011E-2  -2.916965987476009E-1   5.588017844197078E-2  -9.216700805429365E-2  
