#  HZ   S   RI   R     1.00 
! Rohde & Schwarz ZVA67 4Ports - Version 4.11 - 1305.7002k04 SN: 101032
! Date: 2023-06-01 16:56:43
! Measurements: S11 S21 S12 S22 
! 
 1.000000000000000E8     5.507625482761351E-1   7.203595500955734E-1  -4.474566620581700E-5  -1.088051747011499E-5  -4.570225780305347E-5  -1.154030091294263E-5   5.699865475367060E-1   7.323417567669948E-1  
 1.500000000000000E8     2.021725712074838E-1  -1.047588679643661  -1.692090125844096E-5  -2.518604928388092E-7  -5.426468920783941E-5  -3.880426297385523E-5   1.797403984421228E-1  -1.028934044950928  
 2.000000000000000E8    -3.680537559272224E-1   7.912346227088595E-1   2.680628044526952E-5   2.226235465483694E-5   5.749483204217775E-6  -7.974441440034812E-6  -3.295781532719790E-1   7.999350903843769E-1  
 2.500000000000000E8     9.568496131003603E-1  -3.996311448782813E-1   2.121212169005733E-5  -4.173566177740030E-5  -8.541869583864551E-5  -3.998877538467582E-5   9.724536467511471E-1  -4.326074204448147E-1  
 3.000000000000000E8    -8.764546666409152E-1  -3.309716775024214E-2  -2.972066705909167E-5   4.281802142980319E-6   4.664066481874904E-5   1.525514687208008E-5  -8.672835489905660E-1  -2.552897640648142E-4  
 3.500000000000000E8     8.018433714133780E-1   6.087259023836550E-1  -1.668807531653423E-5   5.639685807447591E-5  -4.044408944566609E-5  -1.686076083750022E-5   8.205463528613594E-1   5.724717223196750E-1  
 4.000000000000000E8    -2.694845491032524E-1  -9.069087043194134E-1   5.777292969811715E-5  -1.779005679884207E-5   6.589283257553927E-5  -1.145153535044584E-5  -3.217016179238975E-1  -8.880954432760174E-1  
 4.500000000000000E8    -1.612548957426147E-1   9.040265937631720E-1  -3.892372456993752E-5  -4.348931573419710E-5  -6.706824563975756E-5   3.144437753816585E-5  -9.145731780679473E-2   9.230376306163951E-1  
 5.000000000000000E8     6.895608824234945E-1  -6.748753722061898E-1  -7.355207886704979E-5   3.716575584918170E-5   6.562052682124343E-5  -3.273899992508124E-5   6.508214197091892E-1  -7.089944759505708E-1  
 5.500000000000000E8    -8.577619753761443E-1   2.988076437023131E-1   5.154316018911503E-5   6.244305146578821E-5  -6.114199180458466E-5   4.377942929273141E-5  -8.185939306534747E-1   3.744586124954301E-1  
 6.000000000000000E8     9.427555265007592E-1   2.648971627024426E-1   6.396337049880209E-5  -6.935083655245345E-5   5.942699614688421E-5  -7.160689236005551E-5   9.635417784467134E-1   2.089999608153955E-1  
 6.500000000000000E8    -6.172507839574978E-1  -6.166410649352763E-1  -1.523832795276027E-4  -6.466596241637951E-5  -3.362497070548561E-5   1.395382125337302E-4  -6.643294370596464E-1  -5.314279566391686E-1  
 7.000000000000000E8     1.195300559953628E-1   9.643974955555024E-1  -6.863352118424152E-5   1.405965305056481E-4   6.522766012424703E-5  -1.637582912169424E-4   1.959419239583022E-1   9.764928742520957E-1  
 7.500000000000000E8     3.513631176030647E-1  -8.124554278850799E-1   1.711007666479790E-4  -5.763119046977915E-5   3.537792151360713E-5   2.023528907429598E-4   2.792265781416188E-1  -8.147431508833232E-1  
 8.000000000000000E8    -7.796834044096865E-1   5.274896055563413E-1  -1.155978031702352E-4  -1.673319081104239E-4  -8.728188853064195E-5  -1.552053208616898E-4  -6.977202186338070E-1   6.459957459022652E-1  
 8.500000000000000E8     9.164363315987697E-1  -8.320264785134911E-2  -1.587152396294794E-4   1.394051950113634E-4   1.637001685329550E-4   1.247021664052028E-4   9.072605364058628E-1  -1.667538125521269E-1  
 9.000000000000000E8    -7.772177982637211E-1  -4.438837279252642E-1   1.697116417741392E-4   9.362534338490390E-5  -1.999114205940821E-4  -1.179711589488762E-4  -8.232085627201468E-1  -3.149179833417634E-1  
 9.500000000000000E8     5.353347514955561E-1   7.444206849411216E-1   5.864747142799690E-5  -2.459757023762389E-4   2.361728301135787E-4   7.135128383518814E-5   6.222974517904164E-1   6.756368625271685E-1  
 1.000000000000000E9    -3.028132716629936E-2  -8.779915090174593E-1  -2.471897381519672E-4  -5.429392766882939E-5  -2.387487369043452E-4  -2.187696763861918E-5  -1.585144098514308E-1  -8.666893258099711E-1  
 1.050000000000000E9    -4.923688103393044E-1   8.194564630075211E-1   1.529750274413091E-5   2.853371189003539E-4   2.801509360476087E-4  -5.289796963570766E-5  -3.594906912525077E-1   8.890830304918163E-1  
 1.100000000000000E9     7.570845306479158E-1  -3.880251550668304E-1   2.210094376548340E-4  -1.865522147941159E-4  -2.259326025070057E-4   1.783349407325687E-4   6.745319903588141E-1  -4.816304379528326E-1  
 1.150000000000000E9    -9.346652556195174E-1  -5.468800031073386E-2  -2.683181825620704E-4  -2.694816527591800E-4   2.362821075390536E-4  -2.953906734055543E-4  -9.355433633553149E-1   1.536137331440956E-1  
 1.200000000000000E9     7.348739433189450E-1   4.658543118879757E-1  -1.552546633986033E-4   2.736625662581779E-4  -1.402901891766727E-4   3.175427631936771E-4   8.009172372795059E-1   3.394418986283274E-1  
 1.250000000000000E9    -3.807104012244280E-1  -7.964860239777887E-1   3.224001393997276E-4   8.010035239396352E-5   8.967996115994830E-5  -3.084599993380042E-4  -5.290306990655630E-1  -6.911681783242301E-1  
 1.300000000000000E9    -5.698675461457137E-2   9.261522737638932E-1  -3.125175462203420E-5  -4.728000867497847E-4   9.595337296492330E-5   3.908949775514033E-4   1.057558554768339E-1   9.235953184328747E-1  
 1.350000000000000E9     5.078218746629180E-1  -6.685846029926955E-1  -4.065129466770308E-4   6.507559681636823E-5  -1.844882357700269E-4  -4.155823709065978E-4   3.717396365951076E-1  -7.409572029017715E-1  
 1.400000000000000E9    -8.025770264615594E-1   4.272608407952556E-1   3.249991179667284E-4   3.873680647780920E-4   4.272133570452669E-4   4.072854576419119E-4  -6.513276458822999E-1   6.123933064911202E-1  
 1.450000000000000E9     8.302125655462205E-1   1.203232582547963E-1   1.863761540339406E-4  -3.217751788146183E-4  -2.997511697563368E-4  -1.354765897807270E-4   8.589827701080046E-1  -5.357425571399679E-2  
 1.500000000000000E9    -7.615205956768471E-1  -4.780850541030857E-1  -4.745754334580280E-4  -2.133197261898825E-4   4.658951594206362E-4   1.093354312512845E-4  -8.158974154860424E-1  -3.444509806661870E-1  
 1.550000000000000E9     2.625896435298822E-1   8.357793013592626E-1  -5.702154022645675E-5   4.866043750509499E-4  -5.346674593809647E-4   7.681966529226086E-5   4.563878176673669E-1   7.212651835338870E-1  
 1.600000000000000E9     1.156289541352975E-1  -8.356887753514865E-1   6.052109610402631E-4  -1.865708642019739E-4   6.422640236121321E-4  -2.141265175823028E-4  -1.180909879131695E-1  -8.626730280747597E-1  
 1.650000000000000E9    -6.155372966714646E-1   6.187645883870407E-1  -2.888815031404089E-4  -6.539041728814691E-4  -6.321443185287669E-4   2.882489407873158E-4  -4.455843359835469E-1   7.371694622914503E-1  
 1.700000000000000E9     7.957013265841518E-1  -2.635571413887223E-1  -4.324448323121662E-4   4.717126826311060E-4   4.573225477154425E-4  -4.583794156126488E-4   7.044978697833574E-1  -4.255783459494407E-1  
 1.750000000000000E9    -8.352068998807590E-1  -2.705422167950431E-1   7.192839640168439E-4   1.889037164827083E-4  -2.245003014842883E-4   6.838124340114913E-4  -8.962529755820411E-1  -4.048379641700778E-2  
 1.800000000000000E9     5.737594931279323E-1   5.692162532961707E-1   1.253119972749918E-4  -7.527339368410942E-4  -1.909708830119894E-5  -7.330180329253966E-4   6.900359572274254E-1   4.074753500193414E-1  
 1.850000000000000E9    -2.876959893838219E-1  -8.452899742675757E-1  -6.519502575767303E-4   1.381842257932324E-4   2.366860447241124E-4   7.620246054760193E-4  -4.843123163648671E-1  -7.168436037536444E-1  
 1.900000000000000E9    -3.120128613690230E-1   7.577638673801149E-1   3.840054670853356E-4   6.477091306532377E-4  -2.226820968674951E-4  -7.284057895339403E-4  -1.262430023351231E-1   8.425593146409405E-1  
 1.950000000000000E9     5.785495197615935E-1  -5.621052243543374E-1   6.657846118205553E-4  -6.093695004293641E-4   4.491109059146025E-4   5.940589939455578E-4   4.357083206295325E-1  -6.653576767313864E-1  
 2.000000000000000E9    -9.102970560712705E-1   1.195394287916020E-1  -6.788684306015321E-4  -4.296864365247684E-4  -7.752615796391332E-4  -2.906682946529652E-4  -7.833589354863214E-1   3.929150563253775E-1  
 2.050000000000000E9     7.255534942673826E-1   2.335561614514421E-1  -6.201424574150894E-5   7.052025670292221E-4   8.577465259482642E-4  -2.593021335980629E-5   8.172409684062953E-1   5.584485518648578E-2  
 2.100000000000000E9    -6.532065907044398E-1  -5.478908220545170E-1   7.024164723408522E-4  -2.173877562899018E-4  -6.444478425310437E-4   9.499381463380905E-5  -6.581817976323031E-1  -4.520149367861782E-1  
 2.150000000000000E9    -6.061426671236000E-2   8.387185026899631E-1  -8.558864950884133E-5  -7.198012221871917E-4   6.936509825720978E-4  -4.678614952186855E-5   2.432674755290656E-1   8.310182071148500E-1  
 2.200000000000000E9     3.178334263773182E-1  -7.424091666523558E-1  -4.592211473983599E-4   4.731060083178031E-4  -5.344714233314633E-4   4.059781447374739E-4   1.332938872628177E-1  -7.990278041212775E-1  
 2.250000000000000E9    -7.217228611946208E-1   3.743355126109322E-1   6.896703299891537E-4   5.483177630905529E-4   6.188771402084076E-4  -6.002146430941777E-4  -5.647128839605266E-1   5.861181574186042E-1  
 2.300000000000000E9     8.803163290477518E-1  -7.190734401889401E-2   3.742816966964162E-4  -7.120211581270459E-4  -4.219570664111782E-4   6.896919856906663E-4   7.706020903641490E-1  -2.923340943690236E-1  
 2.350000000000000E9    -4.965081858453595E-1  -5.815045235705216E-1  -6.767882659308801E-4  -1.700110536331642E-4   5.474989797776263E-4  -5.788913377785890E-4  -7.243213067031358E-1  -3.816257061842384E-1  
 2.400000000000000E9     4.265449487951025E-1   6.978089607702123E-1   4.523164524394063E-4   8.946736942953988E-4  -1.496968711681245E-6   8.246122605705909E-4   5.940627123310768E-1   4.876576853470196E-1  
 2.450000000000000E9     1.280627208623740E-1  -8.516767780988857E-1   8.747454282953432E-4  -2.906166177023059E-4  -4.991529272824559E-4  -7.428407383555036E-4  -2.174224715812233E-1  -8.453762414781740E-1  
 2.500000000000000E9    -4.461427455330717E-1   6.278171112215747E-1  -6.281746125387530E-4  -4.534327642614794E-4   7.277656355706495E-4   6.166240720194189E-4  -2.755604418068590E-1   7.446376874298762E-1  
 2.550000000000000E9     7.397018333924923E-1  -3.586643456798541E-1  -1.890577313386944E-4   7.291959243818560E-4  -5.549058519990821E-4  -4.731414951567365E-4   5.789634248164662E-1  -5.022566452940480E-1  
 2.600000000000000E9    -7.982124366821805E-1  -3.478749015269559E-1   1.006900585510330E-3   1.995680034881930E-4   8.464175816767072E-4   3.673538000872298E-4  -8.946101957277344E-1   1.114679246628602E-1  
 2.650000000000000E9     6.094527116512718E-1   4.014265278748075E-1  -1.372480394360679E-4  -6.813201053795326E-4  -6.800140447230334E-4   1.891096809737512E-4   7.262100282593429E-1   2.040013535829294E-1  
 2.700000000000000E9    -3.588137037175314E-1  -8.270855199400574E-1  -6.379960374964472E-4   5.258994395426772E-4   5.933920869431708E-4  -6.184018494805374E-4  -5.635697264358954E-1  -5.759723387476786E-1  
 2.750000000000000E9    -3.072848345388351E-1   7.331745104891473E-1   5.291707379244792E-4   5.923347384713070E-4  -7.450175465535281E-4   3.634567086427654E-4  -2.959112468882219E-2   8.762188661837507E-1  
 2.800000000000000E9     5.853251359423971E-1  -4.964496668620221E-1   2.804628847926369E-4  -5.795009974761976E-4   5.235962528624365E-4  -3.590923532562798E-4   3.864062946331979E-1  -6.167537318264255E-1  
 2.850000000000000E9    -9.026238998462773E-1   5.152147303570968E-2  -7.766066445678003E-4  -1.475024023987394E-4  -1.588749995488141E-4   7.473046493231572E-4  -7.111681196478616E-1   5.129914218149885E-1  
 2.900000000000000E9     7.335328104995758E-1   2.063734458500112E-1   1.604210896538408E-4   6.975377713044105E-4  -1.663648688966633E-4  -6.524664823598252E-4   7.833556923445703E-1  -5.565128084753119E-2  
 2.950000000000000E9    -5.023217813355977E-1  -6.432181518424437E-1   5.602629542072900E-4  -2.621206384286124E-4   2.990780763382129E-4   5.665115707771277E-4  -6.807810128373860E-1  -4.169356208019945E-1  
 3.000000000000000E9     1.063573911282998E-1   8.392972641328076E-1  -4.726402171870936E-4  -3.634176128778394E-4  -4.002104333245793E-4  -4.427642842894728E-4   4.765882053424352E-1   6.333913021550760E-1  
 3.050000000000000E9     4.231509520872326E-1  -6.720505348826751E-1  -2.021454824315142E-4   4.564951745264311E-4   4.390575311671893E-4   2.458656665398763E-4   2.209437726792324E-2  -8.685378359867525E-1  
 3.100000000000000E9    -5.403565357687360E-1   5.416229284374698E-1   3.848224991237287E-4   8.859546239493269E-5  -3.265814919440603E-4   4.664271419994497E-6  -2.493507710217225E-1   6.665587307512491E-1  
 3.150000000000000E9     8.963946451943030E-1  -1.951644585984192E-2   7.833309635377907E-5  -3.742433342040140E-4   4.133921884476068E-4  -5.677116914715833E-7   7.891927206880330E-1  -4.164274617365923E-1  
 3.200000000000000E9    -5.604865561624425E-1  -4.412542476807416E-1  -4.175619713404150E-4  -2.739337292776979E-5  -4.478073601827387E-4  -2.097963340101507E-4  -7.304190270559378E-1  -1.787479601445552E-1  
 3.250000000000000E9     4.349577468248584E-1   7.162766670264495E-1   2.710119477973138E-4   5.623653275513750E-4   5.363114294320714E-4  -1.584318732192455E-4   6.670610433154490E-1   4.229828556213462E-1  
 3.300000000000000E9     1.159235907920546E-1  -8.312491631968292E-1   3.311712228992905E-4  -4.132943224497950E-4  -1.282729165591959E-4   4.509161812639003E-4  -3.770736601988004E-1  -7.117519991974960E-1  
 3.350000000000000E9    -3.833475498286855E-1   6.295611655103538E-1  -3.300013854324911E-4  -1.920027121737831E-5   2.450669097655302E-5  -3.483705256641226E-4  -1.524741205060778E-1   8.026315732462604E-1  
 3.400000000000000E9     7.967125365329981E-1  -2.685178936631006E-1   6.309247193660404E-5   2.793560871235545E-4  -2.767613932085420E-5   2.595612531560649E-4   5.195132194170976E-1  -5.101578385505263E-1  
 3.450000000000000E9    -7.317088095442339E-1  -2.577466171197719E-1   1.843336634797704E-4  -5.434097818940494E-5  -3.480104204345871E-5  -2.300873023322186E-4  -7.737881366692510E-1   3.256068703713622E-1  
 3.500000000000000E9     6.155680376888149E-1   4.973792195338473E-1  -1.010404177351100E-4  -8.508687292838594E-5   9.008597564227494E-5   6.736584556526474E-5   7.753179450958539E-1   1.734275811058916E-1  
 3.550000000000000E9    -2.404448108205344E-1  -7.428213336625171E-1  -2.705352608837485E-5   3.360164921158639E-5  -2.971393446663035E-5  -3.073911457601262E-5  -5.454925750257796E-1  -4.746713151942995E-1  
 3.600000000000000E9    -2.368902669336466E-1   8.380616805778893E-1  -8.784609627111344E-5   9.254122087755056E-5  -6.526646304942936E-5   1.093022631468171E-4   2.340144829288745E-1   8.353180529854842E-1  
 3.650000000000000E9     5.622385387797114E-1  -4.215038634172498E-1   2.280755860687512E-4  -3.649993566759262E-5  -2.268990123754902E-5  -2.457541325294013E-4   2.384076019069682E-1  -6.890150921852489E-1  
 3.700000000000000E9    -7.053094392901210E-1   4.550822193351770E-1  -1.642900248224114E-4  -6.134619239492092E-5   1.254008278324950E-4   1.489560659439004E-5  -3.742237174336242E-1   6.718540534118400E-1  
 3.750000000000000E9     7.685773698141415E-1   2.797174109360798E-1  -4.874079310933049E-5  -2.434096128290104E-5   9.614822014138237E-6  -1.157859543163184E-4   8.260841167981505E-1  -1.665977263061708E-1  
 3.800000000000000E9    -5.132726058757494E-1  -4.758104731475239E-1   6.817794799963971E-5   2.019579715696081E-4   6.302742291993596E-5   2.523253092946320E-4  -6.976495986082366E-1  -2.586232091747369E-1  
 3.850000000000000E9     1.395249052098532E-1   8.442808769088613E-1   1.275118893869228E-4  -3.652679025489852E-4  -3.228350872839812E-4  -1.290844464219069E-4   5.254619584317304E-1   5.263592985819185E-1  
 3.900000000000000E9     2.889632159832798E-1  -6.883097774794393E-1  -3.437241622528504E-4   1.669150524739649E-4   2.599384541155122E-4  -3.238003812825409E-4  -3.035912395166801E-1  -7.355569093050596E-1  
 3.950000000000000E9    -5.032122634311629E-1   5.474500983049362E-1   2.395274982490386E-4  -9.406510214856882E-5   1.258293068044200E-4   2.236152542680729E-4  -2.404339096767690E-1   7.451266557808605E-1  
 4.000000000000000E9     7.968830995535355E-1  -1.447101555972504E-2  -2.349875142244222E-4   3.265893309954617E-5  -2.004150942878585E-4   2.354267524169212E-5   5.568865314146324E-1  -4.130112240283281E-1  
 4.050000000000000E9    -6.931312800978217E-1  -3.514449773303369E-1   1.483437833629199E-4   1.675057574396487E-4   1.420544734472719E-4  -1.594206091228866E-4  -7.986304307397267E-1   2.473890153701317E-1  
 4.100000000000000E9     4.281260015511142E-1   5.982604325699280E-1   1.006214866491019E-4  -1.781077784416289E-4  -8.877830557045246E-5   2.101029971444744E-4   6.733520273327168E-1   2.958626121184267E-1  
 4.150000000000000E9    -2.081839697570372E-1  -7.372709377306006E-1  -3.928072043226569E-4   7.716428841025384E-6  -1.091194662657935E-5  -3.475470810188023E-4  -5.193710434190816E-1  -4.625821903954228E-1  
 4.200000000000000E9    -4.640860933099193E-1   6.568187255206338E-1   2.570077467898702E-4   4.750069054048621E-4   2.057312125360064E-4   5.126082858621873E-4   1.832115836161359E-2   8.488186556032610E-1  
 4.250000000000000E9     5.873424183017076E-1  -3.002682772065950E-1   3.857851576708831E-4  -4.247796539657484E-4  -3.807590679451801E-4  -4.262409302020303E-4   2.928101238520490E-1  -6.231278827179985E-1  
 4.300000000000000E9    -8.595238081728489E-1   1.073235401633527E-1  -7.158509875443167E-4  -1.379563421993322E-4   7.535502197092601E-4  -6.564670295440692E-6  -4.700955108260408E-1   5.733510984614492E-1  
 4.350000000000000E9     5.958795850587780E-1   4.106084467597517E-1   7.038646736167773E-5   8.967795767274098E-4  -9.852014628404686E-4   2.121545159799302E-4   7.962517914259362E-1  -4.845529625500106E-2  
 4.400000000000000E9    -4.044341730995137E-1  -5.673167432530855E-1   6.880641087269852E-4  -5.906229536658814E-4   7.571815437091756E-4  -3.629540414901034E-4  -6.077976906835514E-1  -3.480551567397917E-1  
 4.450000000000000E9    -1.538025453601012E-1   8.244057136379593E-1  -6.172557226926776E-4  -4.401529537478828E-4  -4.544178114965566E-4   5.327665748580270E-4   3.729815467218594E-1   6.560846678695685E-1  
 4.500000000000000E9     3.963150498158094E-1  -5.677017148927638E-1  -4.983019554734867E-4   7.022594973229779E-4   5.334060934512056E-4  -7.135234079993375E-4  -1.205265728187871E-1  -7.413550588180344E-1  
 4.550000000000000E9    -6.359534323814033E-1   3.923787131844413E-1   1.070629764721627E-3   1.443748359093560E-4  -2.313299722416690E-4   1.207469755925680E-3  -4.309294097431671E-1   6.202586264633091E-1  
 4.600000000000000E9     7.545991875107567E-1   1.305208681940856E-1  -4.895336464994190E-4  -1.352882295690985E-3  -9.568445107929085E-5  -1.253584542336141E-3   5.728177353111046E-1  -3.211234986821133E-1  
 4.650000000000000E9    -4.915790975765400E-1  -5.374828934837063E-1  -8.214459995737318E-4   7.389142516402792E-4   6.497915597463713E-4   1.014971265027090E-3  -8.459070773869495E-1  -1.506747128137244E-3  
 4.700000000000000E9     2.435498037883098E-1   6.775090603295297E-1   9.750683555524483E-4   8.425282336752333E-4  -7.715069249059491E-4  -9.292682731819746E-4   5.703259963017635E-1   3.694812029142712E-1  
 4.750000000000000E9     7.920350248939195E-2  -7.608523466850837E-1   5.087335976024001E-4  -1.216545080763490E-3   1.219690152659364E-3   5.871881470850341E-4  -3.994528342592623E-1  -5.876424904463710E-1  
