#  HZ   S   RI   R     1.00 
! Rohde & Schwarz ZVA67 4Ports - Version 4.11 - 1305.7002k04 SN: 101032
! Date: 2023-06-01 16:30:42
! Measurements: S11 S21 S12 S22 
! 
 1.000000000000000E8     8.562006188941750E-2  -1.520152047846798E-1  -3.356143152696514E-1   1.402915007078143E-1   3.479212772635711E-1  -1.290385784395407E-1  -6.921121303090232E-2  -4.867889675554656E-1  
 1.500000000000000E8     6.267614592684973E-2   3.309375454736725E-2   1.758805588696921E-1   2.883718218670754E-1  -2.754797886301070E-1   2.137463755528624E-1  -3.945298274124995E-3   3.885726894591848E-1  
 2.000000000000000E8     1.354605999803904E-1  -1.098772659444031E-1   2.429264885374209E-1  -2.493195057143167E-1   2.359593372093351E-1  -2.508010636833084E-1   3.929645208036892E-1  -3.054457468799753E-1  
 2.500000000000000E8    -5.198157357095986E-2  -2.819936096253177E-2  -2.793610430226242E-1  -2.444589363816936E-1  -1.159241059014227E-1   3.257505180134407E-1  -3.490997210874022E-1   9.459197620329535E-2  
 3.000000000000000E8     1.256585716838875E-1   2.887868481965418E-2  -1.450544806447107E-1   2.961117130653042E-1   1.175240020620811E-1  -3.295278252704914E-1   4.724328598056297E-1   1.661402160160304E-1  
 3.500000000000000E8     2.525412463435005E-2  -8.779883210820920E-2   3.326160375271949E-1   7.814425223152044E-2  -7.022593455858169E-2   3.411687805763640E-1  -1.460400542729753E-1  -3.905151676343835E-1  
 4.000000000000000E8     4.968297684299372E-2   9.644307212860094E-2   4.069038960453788E-2  -3.690606868886993E-1  -1.088584484614345E-2  -3.405352824053937E-1   2.577324191436376E-2   4.216917691653541E-1  
 4.500000000000000E8     1.310285904827127E-1  -5.437809389338495E-2  -3.318549949817537E-1   9.025747742203348E-3   4.841768500851208E-2   3.384567148208942E-1   3.330706718081634E-1  -3.240915568233218E-1  
 5.000000000000000E8    -4.033398653593447E-2   1.538880542602528E-2   1.159939889534565E-1   3.202235436154818E-1  -1.060600367763274E-1  -3.265407042796751E-1  -3.588776151914910E-1   1.299996865355922E-1  
 5.500000000000000E8     1.190778974959753E-1   4.833180628107603E-2   3.105834285043801E-1  -1.499577007445518E-1   1.875172304396935E-1   2.792149893701956E-1   4.412525480507054E-1   1.341177660118157E-1  
 6.000000000000000E8     1.150961020384829E-2  -7.719871802674240E-2  -1.860257626025714E-1  -2.927408576678284E-1  -2.737937399917394E-1  -2.131940633969288E-1  -2.407015792338416E-1  -3.172727373625309E-1  
 6.500000000000000E8     3.882966108328328E-2   6.771966615990481E-2  -2.036067209079101E-1   2.451394946550981E-1   2.557814513808976E-1   2.086996970668118E-1   5.088901438944650E-2   4.151689866616944E-1  
 7.000000000000000E8     9.278747399474965E-2  -6.787204807473488E-2   3.088851908512537E-1   1.811987293271934E-1  -2.893499481627255E-1  -1.698661910937870E-1   2.510700700346011E-1  -3.262748300925186E-1  
 7.500000000000000E8    -5.791764221126958E-2   1.737779765154144E-2   1.454685190516201E-1  -3.059982455819599E-1   3.125836504392214E-1   1.331309681052399E-1  -3.696371042361044E-1   1.666232198042469E-1  
 8.000000000000000E8     8.101154017702615E-2   5.555775599768274E-2  -3.167215160722862E-1  -6.104561331479115E-2  -3.316700745243315E-1  -6.258900193151666E-2   4.327319049967266E-1   1.295249074865456E-1  
 8.500000000000000E8    -2.552736059902519E-2  -2.959502704581436E-2   1.054226399713854E-2   3.452720531484601E-1   3.285964519303368E-1  -3.072164620134925E-3  -2.357468106066714E-1  -2.584409990264495E-1  
 9.000000000000000E8     1.415639802905564E-2   9.735746545015249E-2   3.381727504392927E-1  -4.601277223337245E-2  -3.292312648341855E-1   6.516378157550747E-2   9.663650935635196E-2   4.223140044605611E-1  
 9.500000000000000E8     5.491609698972315E-2  -3.946810825240221E-2  -1.129831021511868E-1  -3.011974510318891E-1   2.991516652180630E-1  -1.415294521055153E-1   1.825699448249467E-1  -3.430538764140735E-1  
 1.000000000000000E9    -5.261143476799450E-2   4.652851872132077E-2  -2.830766912148709E-1   1.780963034443857E-1  -2.661481216483798E-1   2.011873430015517E-1  -3.348512332671266E-1   2.388320071854689E-1  
 1.050000000000000E9     8.304593162427625E-2   4.782293808750499E-2   2.252838782744709E-1   2.643155626173899E-1   2.387262224753032E-1  -2.333510850205239E-1   4.110468170545245E-1   6.456827980479198E-2  
 1.100000000000000E9    -1.187305496178069E-2  -2.161239440643377E-2   1.995172943813481E-1  -2.436233749614354E-1  -2.070968410786008E-1   2.517252256426796E-1  -2.712200330159846E-1  -2.210121109481469E-1  
 1.150000000000000E9     3.420575220406340E-2   7.028119907439108E-2  -3.084140515413189E-1  -1.385238570903392E-1   1.207274538618183E-1  -3.062111031102475E-1   1.474480505675140E-1   3.920998364690772E-1  
 1.200000000000000E9     2.693589317592787E-2  -5.258544727724004E-2  -1.137948597470169E-1   3.216306166234460E-1  -5.863230607560694E-2   3.255383512383911E-1   9.961416169416779E-2  -3.613333310332030E-1  
 1.250000000000000E9    -6.594989345249944E-2   3.136019911976731E-2   3.182483044871126E-1   4.430651674261597E-2   2.160142773993979E-2  -3.319689001185764E-1  -3.375149183840148E-1   2.665411452018390E-1  
 1.300000000000000E9     2.925988932329819E-2   5.557876408089774E-3  -4.105578902913422E-2  -3.221229429203015E-1   5.520223618847671E-2   3.163006100975374E-1   3.472694608732883E-1   5.810480812339532E-3  
 1.350000000000000E9    -6.386515359679135E-2  -2.211765741856582E-2  -3.408902851120622E-1   7.774024023987695E-2  -1.258052263586265E-1  -3.110560146095446E-1  -3.515444044753306E-1  -1.441971257631363E-1  
 1.400000000000000E9     1.669290412599296E-3   4.676801476518113E-2   1.256417456225945E-1   2.878811515431457E-1   1.948060412515608E-1   2.529047728387175E-1   1.926789929402616E-1   3.480626144539470E-1  
 1.450000000000000E9    -3.144732192831450E-2  -3.777767248864346E-2   2.609383993615722E-1  -1.979739618305907E-1  -2.384213858931154E-1  -2.333476513454724E-1   3.408939828291571E-2  -3.726232177987875E-1  
 1.500000000000000E9    -6.604012746346086E-2   6.569888906278901E-2  -2.523163606236285E-1  -2.330777243899925E-1   2.610706995078161E-1   1.946809383928093E-1  -2.780829861526329E-1   2.935333640674795E-1  
 1.550000000000000E9     8.298129243103400E-3   1.247621355382306E-2  -1.891832217055065E-1   2.572890099787575E-1  -2.963807766201804E-1  -1.351280099937127E-1   3.274321849619096E-1  -6.800332278292623E-2  
 1.600000000000000E9    -6.752023256611300E-2   2.070607131756256E-2   2.994735397193126E-1   1.127881326683835E-1   3.146619018246103E-1   8.245647343312569E-2  -3.784839273113714E-1  -8.213353491048145E-2  
 1.650000000000000E9     2.428818272008122E-2   4.043710038959897E-2   6.545413981425913E-2  -3.354120070439533E-1  -3.243850285202642E-1  -6.321663052492872E-2   1.950540610552966E-1   3.349014927862148E-1  
 1.700000000000000E9    -3.163187827848022E-2  -4.677365994717556E-2  -3.201765724093485E-1  -2.333947759617109E-2   3.200413220304370E-1   1.463566478372536E-2   6.226070141683224E-3  -3.607163847492460E-1  
 1.750000000000000E9    -3.192525875768387E-2   3.937768655524294E-2   6.208988163023180E-2   3.083546817429242E-1  -3.228409517833522E-1   4.706139288618980E-2  -2.400288239282997E-1   2.894937509093513E-1  
 1.800000000000000E9     1.513483497781618E-2  -5.247942356229007E-2   3.222354707603313E-1  -1.137334597127905E-1   2.961462366925916E-1  -1.249502759611445E-1   3.023954496957886E-1  -1.441533471700475E-1  
 1.850000000000000E9    -7.371332369612223E-2  -8.794442681741319E-3  -1.488372762777893E-1  -2.804565019865871E-1  -2.580908088366065E-1   1.896494098540863E-1  -3.879339650005746E-1  -6.523938013437805E-2  
 1.900000000000000E9     1.780253922005943E-2  -1.561210145992876E-2  -2.329768140248121E-1   2.177988613077450E-1   2.586796024505125E-1  -2.070685881236744E-1   2.064383803238084E-1   2.883824011264351E-1  
 1.950000000000000E9    -7.433762462989493E-2  -7.982209397612346E-2   2.610319433277960E-1   2.017188158570025E-1  -2.305864646534591E-1   2.152160941945210E-1  -4.788413566071104E-2  -3.529254373246020E-1  
 2.000000000000000E9    -4.473947061063548E-2   2.853977436033529E-2   1.620385386575989E-1  -2.807815983043421E-1   1.471324929199747E-1  -2.835108844082043E-1  -1.718566653366608E-1   3.118856528776401E-1  
 2.050000000000000E9    -2.784054126746886E-2  -7.327195868904123E-2  -2.970264629936448E-1  -9.884680110538568E-2  -4.946971766019471E-2   3.243445795503234E-1   2.802443174727137E-1  -2.139229475800317E-1  
 2.100000000000000E9    -9.067863194309156E-2   1.963917622566014E-2  -2.881733390345891E-2   3.238902332068636E-1   2.429791323296785E-2  -3.099038263413522E-1  -3.701481885651670E-1  -5.524629456618365E-2  
 2.150000000000000E9     3.079116112367775E-2  -9.994564670077579E-3   3.335526618309934E-1  -1.324628307143098E-2  -3.859118508674821E-2   3.286465893436965E-1   2.321001019922261E-1   2.414768170492522E-1  
 2.200000000000000E9    -7.323507139458907E-2  -6.311311725399284E-2  -6.863017148019142E-2  -2.921594193235981E-1  -2.435297126840440E-2  -3.096634656667809E-1  -9.918798355235470E-2  -3.408600528573383E-1  
 2.250000000000000E9    -1.407379120490379E-3   4.758549924071933E-2  -2.980089310666059E-1   1.567937189703990E-1   9.746135496233160E-2   3.043946870734656E-1  -1.316611613679937E-1   3.219292342082031E-1  
 2.300000000000000E9     1.470385699322781E-2  -8.891987994209617E-2   1.673657233598834E-1   2.719129665050826E-1  -1.446407866276628E-1  -2.825903207929291E-1   2.784533907879976E-1  -2.196785203204010E-1  
 2.350000000000000E9    -5.025945106563612E-2  -6.562913268805828E-3   2.192669555623767E-1  -2.195366826882018E-1   1.079628066613553E-1   3.045155174991664E-1  -3.436500515225364E-1  -8.050085141611324E-2  
 2.400000000000000E9     8.818703772421491E-2  -5.474026795901509E-2  -2.807951084536391E-1  -1.468050067716304E-1  -1.980375060733473E-1  -2.352287326031022E-1   2.825392999006300E-1   1.432828848518677E-1  
 2.450000000000000E9    -5.918222205177611E-2  -9.734637919486495E-2  -1.586425283581499E-1   2.868079317272946E-1   2.909531976443646E-1   1.328711968783741E-1  -1.529137968712754E-1  -3.415310543528436E-1  
 2.500000000000000E9     3.346678276606988E-2   1.074386627349369E-2   3.007656409245122E-1   6.923442388139203E-2  -3.041844110782889E-1  -9.628301640251501E-2  -6.557895220835437E-2   3.207422488135852E-1  
 2.550000000000000E9     1.096641416683473E-2  -1.241715381319751E-1   4.429057348195113E-3  -3.098345912736362E-1   2.931210690844644E-1   8.518216482046322E-2   2.612050158270408E-1  -2.413811480875110E-1  
 2.600000000000000E9    -5.990145906676529E-2   5.480603786715039E-3  -3.334404920101278E-1   5.733657509125812E-2  -3.286783750459592E-1  -3.989675098014155E-2  -3.440423332863228E-1   2.498916911378229E-2  
 2.650000000000000E9     7.281228769152949E-2  -7.380884712815591E-2   8.125383728980153E-2   2.882049933180372E-1   2.852543324465119E-1  -1.012140094476871E-1   3.108170429070218E-1   6.377947290219857E-2  
 2.700000000000000E9    -8.749268755105771E-2  -6.045771623763416E-2   2.739355523353709E-1  -1.655541813150891E-1  -2.506134469642428E-1   1.868036872877036E-1  -2.216210976203508E-1  -2.965297259577447E-1  
 2.750000000000000E9     6.034144873192533E-2   3.989483163345384E-2  -2.058828611463569E-1  -2.545619347222622E-1   3.022457589878393E-1  -1.295735798148974E-1  -5.275018814462599E-2   3.284244980025591E-1  
 2.800000000000000E9     3.470819003014889E-2  -1.109272127456080E-1  -1.896425017107630E-1   2.397063425223302E-1  -2.659302266825436E-1   1.302626869146347E-1   2.265619814861884E-1  -2.507462156814125E-1  
 2.850000000000000E9    -2.313380276679332E-2   5.121909814545168E-2   2.740449916198211E-1   1.500969015596915E-1   1.926280801866913E-1  -2.620088136250250E-1  -3.079983050497889E-1   1.149657258839787E-1  
 2.900000000000000E9     1.119161075979395E-1  -6.142587037109267E-2   1.114557243926654E-1  -3.069853338422541E-1  -9.344100268111094E-2   2.909356671434226E-1   3.454658718076960E-1   5.518841799070046E-2  
 2.950000000000000E9    -6.143142879041701E-2  -3.273834572301127E-2  -3.048597931280209E-1  -5.112907433607306E-2   6.178034133995133E-2  -3.042886672007566E-1  -2.125948555663863E-1  -2.502711661453190E-1  
 3.000000000000000E9     9.798354401084918E-2   5.752379358309372E-2   2.136982239156820E-2   3.085971832233198E-1  -7.472297559627604E-3   3.148294482260383E-1   8.541777747358584E-2   3.432968829403753E-1  
 3.050000000000000E9     1.996778992053072E-2  -1.086185437300674E-1   3.144185551893733E-1  -7.815338282858186E-2  -7.075092725495884E-2  -3.073911142753085E-1   1.518362738020868E-1  -3.109055531097658E-1  
 3.100000000000000E9     7.264078970591223E-3   7.698463146753036E-2  -1.046657868937423E-1  -2.888559365074388E-1   1.850755012621276E-1   2.310070915826455E-1  -2.069499950659858E-1   2.148081033288113E-1  
 3.150000000000000E9     1.163887600938827E-1  -5.753936088687231E-2  -2.556494581346991E-1   1.779119561030625E-1  -1.953692291981776E-1  -2.554834203748659E-1   3.975875767622564E-1   2.402432324333737E-2  
 3.200000000000000E9    -5.740014259093410E-2   7.874807134896630E-3   2.218060184679896E-1   2.167286730053270E-1   1.549619043018058E-1   2.616951962473444E-1  -2.011971800074157E-1  -2.133868840786366E-1  
 3.250000000000000E9     1.189044979718942E-1   8.543445776571090E-2   1.756210698161627E-1  -2.642379421072266E-1  -2.402569383378064E-1  -1.917575989820991E-1   1.504039940379972E-1   3.337562182731679E-1  
 3.300000000000000E9     5.767519764768231E-3  -6.691922233572990E-2  -2.714272878227904E-1  -1.320335025645748E-1   3.013135512562146E-1   8.076520278373608E-2   9.149618200020659E-2  -3.078549977809856E-1  
 3.350000000000000E9     2.548987242492813E-2   1.245772798433712E-1  -7.254621625357818E-2   3.029037113761980E-1  -2.925223575955556E-1  -5.937060176208383E-2  -2.292121693597832E-1   2.497575968355987E-1  
 3.400000000000000E9     1.198706927730804E-1  -2.297876476620743E-2   3.136083063719976E-1   1.505617732401749E-2   2.961223884372342E-1   6.910894565114444E-2   3.717068476957317E-1   1.758042250943732E-2  
 3.450000000000000E9    -5.670586467152570E-2   4.487209086070870E-2  -4.025347932270922E-2  -2.991074490043325E-1  -3.149949763554956E-1  -1.421634546688229E-2  -2.571716105286909E-1  -1.369989021326850E-1  
 3.500000000000000E9     1.412268020496989E-1   7.580745026876297E-2  -2.924069100764661E-1   9.439673989710465E-2   2.665686656403855E-1  -1.211373792770994E-1   2.091091580794736E-1   3.020606326490616E-1  
 3.550000000000000E9    -1.676146663649403E-2  -5.445300293241500E-2   1.340459608577440E-1   2.869937298309722E-1  -2.565840583782470E-1   1.609041120008617E-1   5.279812400628837E-2  -2.994590962408777E-1  
 3.600000000000000E9     6.047326418921598E-3   1.536459214082976E-1   2.398513446070620E-1  -1.866969651353126E-1   2.604769701075218E-1  -1.759759858195021E-1  -2.369118203125975E-1   3.038172536856826E-1  
 3.650000000000000E9     7.910964591480096E-2  -2.151642493656952E-2  -2.335925378863338E-1  -1.948074042540854E-1  -1.949278627459225E-1   2.232085015514931E-1   3.176536746966236E-1  -2.831047020475100E-2  
 3.700000000000000E9    -7.815871186100684E-2   1.171750567721415E-1  -1.557907199948730E-1   2.794123755293987E-1   5.819821026461673E-2  -3.010298748700329E-1  -3.116407388644883E-1   2.013564490016396E-2  
 3.750000000000000E9     1.278777484680692E-1   7.925598649454060E-2   2.714318888463267E-1   1.354307415111757E-1  -4.414822792727616E-2   3.034550289638118E-1   2.168154558635965E-1   3.250443017296302E-1  
 3.800000000000000E9    -7.352167107909391E-2  -2.164808734696361E-2   2.705495172129869E-2  -2.961115548898680E-1   6.614604287591225E-2  -2.853579612598761E-1  -2.120713682547038E-3  -2.762838016380517E-1  
 3.850000000000000E9     8.594588177288415E-4   1.831893293794565E-1  -3.209991607564578E-1   6.579655561763240E-3   2.713350761862097E-2   3.085894953922305E-1  -1.511098140745023E-1   3.601139210387505E-1  
 3.900000000000000E9     5.140225536423854E-2  -3.215674160532183E-2   5.032397329975855E-2   2.952258977117678E-1  -1.246544793983140E-1  -2.802783901967199E-1   2.912751409072840E-1  -1.108825038799069E-1  
 3.950000000000000E9    -9.005512344789936E-2   1.331385906153339E-1   2.730736753945427E-1  -1.133112110355607E-1   1.575249844075342E-1   2.437165126091939E-1  -3.179969092825065E-1   3.896890617792830E-2  
 4.000000000000000E9     1.132798709655460E-1   8.987369654813590E-2  -1.766695584608693E-1  -2.656172904346182E-1  -1.463913082565007E-1  -2.661636231494915E-1   2.401761058758680E-1   2.989762523220808E-1  
 4.050000000000000E9    -1.034032241700808E-1  -2.005814377953212E-2  -2.178681888361689E-1   1.966548062419063E-1   1.991368268393510E-1   2.370019529383769E-1  -9.121698260608924E-2  -2.766271630356874E-1  
 4.100000000000000E9     2.558232966896961E-2   1.861639614268172E-1   2.464634658566542E-1   1.640066385004666E-1  -2.697390972617709E-1  -1.162629003136812E-1  -1.007764936856071E-1   3.752567437458802E-1  
 4.150000000000000E9     1.753975139844332E-2  -5.955446214116247E-2   1.313573848681045E-1  -2.776751200313128E-1   2.961978224812018E-1   9.245020326989333E-2   2.433475588806347E-1  -1.364512512631572E-1  
 4.200000000000000E9    -1.403362048045861E-1   1.079462677903610E-1  -2.912405457346954E-1  -8.457916347430539E-2  -2.753743283924599E-1  -1.251843027792044E-1  -3.713658320341188E-1   1.550414992154110E-2  
 4.250000000000000E9     8.911744897323740E-2   3.771098511898706E-2  -1.569388073861172E-2   2.819354282540741E-1   2.846570500846899E-1   3.655155576367644E-2   2.504653937892748E-1   2.099168393513817E-1  
 4.300000000000000E9    -1.638377549849431E-1  -4.495378584170039E-2   3.145284098029029E-1  -4.009837483419073E-2  -3.103462412494711E-1   9.496621970569490E-2  -2.119880912698283E-1  -2.676380361862614E-1  
 4.350000000000000E9     1.036161376523212E-2   1.732855621180486E-1  -7.739589751079291E-2  -2.800737285580633E-1   2.695650852360405E-1  -1.002618445374226E-1  -1.184979818523888E-1   3.544645758142687E-1  
 4.400000000000000E9    -9.449702388337637E-3  -8.608168334581824E-2  -2.569619809891348E-1   1.370558208374712E-1  -2.797965606842736E-1   9.906477264896003E-2   2.058135241781908E-1  -1.658054784557794E-1  
 4.450000000000000E9    -1.717947488123069E-1   1.092503091205827E-1   1.885411285250179E-1   2.418640142737020E-1   2.706146539289772E-1  -1.435652393279843E-1  -4.021173902681948E-1   6.336643613270977E-2  
 4.500000000000000E9     8.913380698913845E-2   1.092620585564524E-2   1.973109045173415E-1  -2.102124292908036E-1  -2.041931493785820E-1   2.110749052598145E-1   2.558543232671122E-1   1.718395854626504E-1  
 4.550000000000000E9    -1.813037425475736E-1  -4.697584941008967E-2  -2.611882105073055E-1  -1.422901963753249E-1   1.564318132510280E-1  -2.545236418892812E-1  -2.061761495935216E-1  -2.796532867437223E-1  
 4.600000000000000E9     4.778888314560429E-3   1.491443895680430E-1  -1.016466838433825E-1   2.734022981508372E-1  -1.734967626032735E-1   2.429560938371914E-1  -1.214616445583646E-1   3.445339501350231E-1  
 4.650000000000000E9     1.617749868270999E-2  -1.354942047276941E-1   2.916420014589780E-1   6.667373434927311E-2   1.171958453202574E-1  -2.678526661018879E-1   1.802582600090102E-1  -2.344682485953719E-1  
 4.700000000000000E9    -1.546342439826888E-1   9.742907114242966E-2  -9.677567466155177E-3  -2.852793123851000E-1  -2.184495675494447E-2   2.929030959027584E-1  -3.652266649147090E-1   1.434781638196676E-1  
 4.750000000000000E9     1.098012883716658E-1  -2.566367891165644E-2  -2.900414596798947E-1   5.786111103655602E-2  -1.153349828397581E-2  -3.068845831635931E-1   2.748458327021616E-1   1.465733967549318E-1  
