#  HZ   S   RI   R     1.00 
! Rohde & Schwarz ZVA67 4Ports - Version 4.11 - 1305.7002k04 SN: 101032
! Date: 2023-06-01 17:08:02
! Measurements: S11 S21 S12 S22 
! 
 1.000000000000000E8     1.703819365678117E-1  -1.644533838906683E-1  -7.760854517288224E-1   5.889473400636550E-1   8.283908585745805E-1  -5.144193337123436E-1   7.202674472792224E-2  -1.275152459436102E-1  
 1.500000000000000E8     1.812400592172791E-3  -1.136536665272739E-1   7.411239984132365E-1   6.291140113976768E-1  -5.692675283024138E-1   7.755060244658336E-1  -1.436731298194853E-2   3.999103430261302E-2  
 2.000000000000000E8     1.354471565483484E-2   2.098475688365771E-3   3.657942730309103E-1  -8.928360923397531E-1   2.824037995116058E-1  -8.840520894473332E-1   2.054089553335162E-1   1.030620856159143E-1  
 2.500000000000000E8    -9.875882217465075E-2   4.723472067153377E-3  -9.362677172039370E-1  -1.571625870094247E-1   9.599187377699762E-2   9.542848166276411E-1   9.957019498969449E-2  -1.048045891008189E-1  
 3.000000000000000E8     3.243203713073896E-2   1.748223133462828E-1   1.754178457093036E-1   9.065046227409920E-1  -2.598113444152808E-1  -9.186347992849324E-1   3.555952055528484E-2  -4.078202686607938E-2  
 3.500000000000000E8     1.622064610453879E-1  -6.992979850330722E-2   8.452284037606158E-1  -4.255946153146828E-1   4.336032154882248E-1   8.266771704913549E-1  -9.755968490985253E-3  -1.558969581105559E-1  
 4.000000000000000E8     1.143716842031740E-1   1.060759904405904E-2  -5.975340070561361E-1  -7.401051421325446E-1  -6.842708818054072E-1  -6.235264985793960E-1  -1.551423999527192E-2   8.671893207582317E-2  
 4.500000000000000E8     3.145493025065027E-1  -1.319531088509122E-1  -4.871127088982995E-1   7.678122860673687E-1   7.883262251401108E-1   4.560678296048015E-1   2.855898069730363E-1  -5.524076252586153E-2  
 5.000000000000000E8    -3.178771784873904E-2  -1.520145037945553E-1   8.966611903321190E-1   2.195012326956106E-1  -8.971794208489697E-1  -2.315457688374651E-1  -2.198716968905391E-2  -8.866509582186818E-2  
 5.500000000000000E8     1.425686557528969E-1   1.058705728426066E-1  -5.642907096843363E-4  -9.077014266375986E-1   8.985104443616990E-1  -1.174072273815815E-1   1.468124734385830E-1   8.364698051059157E-2  
 6.000000000000000E8    -7.439550251984736E-2  -1.420861122944010E-1  -8.824814030923045E-1   2.191391633899243E-1  -7.885724487106124E-1   4.463491033323560E-1  -1.141303091334555E-1  -6.679843921905508E-2  
 6.500000000000000E8    -1.016852475256083E-1   2.801511926431997E-1   4.887109419033647E-1   6.999292058370142E-1   6.905852734639272E-1  -5.053059565735314E-1   2.338522192195889E-2   3.173024195439071E-1  
 7.000000000000000E8     1.497397522103016E-1  -4.055700652661714E-2   5.839201657568595E-1  -7.055264096710781E-1  -5.638049870586408E-1   6.715649797886608E-1   2.285942108359136E-1  -1.611335353108221E-1  
 7.500000000000000E8    -1.836730038809059E-1   1.185571826901283E-1  -7.773189460236213E-1  -4.136303323415861E-1   3.732540230141647E-1  -8.046490228862183E-1  -1.737257504799161E-1   7.430986566956156E-3  
 8.000000000000000E8     3.576927401824983E-1   8.073860665369975E-2  -1.042399828531449E-1   8.395441343310914E-1  -1.566893789937481E-1   8.652207385351094E-1   2.014153757180250E-1  -3.617887787312860E-2  
 8.500000000000000E8    -5.950822128046265E-2  -2.383231410563216E-1   8.383258558514898E-1  -1.331250326290439E-1  -1.070342458211333E-1  -8.273851108586943E-1  -2.661272032814473E-1  -8.332359111708944E-2  
 9.000000000000000E8     1.908604366964739E-1   2.083761060568375E-1  -3.523362784594490E-1  -7.941565176462805E-1   3.433816867218233E-1   7.492068144525172E-1   2.094907741291941E-1   3.379793245038691E-1  
 9.500000000000000E8     8.170624835794450E-2  -3.627504966001772E-1  -6.290639819990244E-1   5.023704922014559E-1  -5.966234086883245E-1  -5.760218619570741E-1   8.422290280326797E-2  -2.814954668223023E-1  
 1.000000000000000E9    -2.385693773829933E-1   2.572455914554908E-1   6.834040847972838E-1   4.439418320642131E-1   7.342835870284541E-1   3.986993301243394E-1  -1.015248413855216E-1   2.944024024245894E-1  
 1.050000000000000E9     2.726761146956090E-1  -5.389978918595775E-2   2.424844593685175E-1  -8.038211425490863E-1  -7.926165160390387E-1  -2.300725850264563E-1   2.371685982539470E-1  -1.482594975378018E-1  
 1.100000000000000E9    -4.011584183538655E-1   4.540672340514819E-2  -7.962057837364669E-1  -8.198183285152383E-2   7.864437405178922E-1   8.123141175879321E-2  -4.093563988237843E-1   1.304401045207295E-1  
 1.150000000000000E9     3.193728685639673E-1   3.038728833279011E-1   2.340030436318563E-1   7.262271913419933E-1  -7.088588912993199E-1   2.579416297654201E-1   3.690044949868642E-1   2.137822204448812E-1  
 1.200000000000000E9    -1.359577348304622E-1  -3.070210497134660E-1   7.123325171595253E-1  -3.886571085429433E-1   6.135165583477935E-1  -4.776818241067783E-1  -2.240535654720746E-1  -3.300078642168088E-1  
 1.250000000000000E9     4.348041870995510E-2   3.994794989923043E-1  -5.483701667942980E-1  -5.655531741912582E-1  -5.459148747277507E-1   6.157863067114890E-1   3.846026555474454E-2   3.260560475611043E-1  
 1.300000000000000E9     2.699490864796620E-1  -3.908003761951720E-1  -3.397618145709813E-1   6.036524738259380E-1   3.320335958176716E-1  -6.457831040080242E-1   9.477914030024920E-2  -3.957939052504618E-1  
 1.350000000000000E9    -3.390126771577980E-1   1.598693778197137E-1   8.032754464791833E-1   1.325212816538305E-1  -6.965484819124113E-2   7.414792614642441E-1  -3.211541765292289E-1   3.795515124379388E-1  
 1.400000000000000E9     4.317332370130748E-1  -6.558338896725220E-2   3.773278225872447E-2  -7.238509900132440E-1  -1.763370413984680E-1  -6.700810134291483E-1   4.805964755337245E-1  -2.891556808236338E-2  
 1.450000000000000E9    -4.761141741363934E-1  -2.021092877963394E-1  -6.801201052402407E-1   2.306107935399090E-1   3.830410784592864E-1   6.642718835623692E-1  -3.889659910896352E-1  -1.060154800435663E-1  
 1.500000000000000E9     1.707604319894519E-1   4.292753474663943E-1   4.257886927679764E-1   5.798730807613584E-1  -4.607014836912515E-1  -5.806237815846337E-1   2.878073739737090E-1   3.138502874586271E-1  
 1.550000000000000E9    -1.052364059394488E-1  -3.961216222793994E-1   5.185073411972171E-1  -5.465806137169649E-1   5.802239509559628E-1   4.051715227034502E-1  -1.983968579024512E-1  -4.536552662684328E-1  
 1.600000000000000E9    -2.585224966701710E-1   4.874043477950884E-1  -5.923256982208899E-1  -3.243234745742470E-1  -6.285904684122728E-1  -2.170806204470018E-1  -1.647060929005632E-1   5.100431066826029E-1  
 1.650000000000000E9     4.374781600585962E-1  -2.191537293882469E-1  -8.028996407874206E-2   6.898169716662324E-1   7.056075244500054E-1   7.240617184969708E-2   3.729965933538573E-1  -3.004062695090977E-1  
 1.700000000000000E9    -4.397501556137131E-1  -3.022447842207449E-3   7.428345128933765E-1  -4.707060838290984E-2  -7.298439310047624E-1   3.516237555867949E-2  -4.498530615313044E-1   5.994575776730959E-2  
 1.750000000000000E9     4.553002332385909E-1   2.172404021960651E-1  -2.032592680135977E-1  -6.402131700648618E-1   6.647080566463862E-1  -1.996809705273762E-1   4.299473858392380E-1   8.363876566875939E-2  
 1.800000000000000E9    -2.413692694262077E-1  -4.957346197631251E-1  -5.351509322910377E-1   3.994957881916668E-1  -5.355136704038129E-1   4.096244792459463E-1  -4.345859538893145E-1  -3.640082660326291E-1  
 1.850000000000000E9    -1.219409369276502E-2   4.021178365559288E-1   5.611929587120622E-1   4.660447878440968E-1   3.730173893101139E-1  -5.407315338082559E-1   8.196582886305287E-2   5.067961513626872E-1  
 1.900000000000000E9     1.750532514237826E-1  -5.007200816825759E-1   2.870636619680969E-1  -6.245709966851184E-1  -2.470653974084397E-1   6.594963272614411E-1   1.635098394401286E-1  -4.262102318078352E-1  
 1.950000000000000E9    -5.227166882828981E-1   1.596523605157162E-1  -6.597248896895810E-1  -1.122965252420178E-1   2.503649243128648E-1  -7.038720031442645E-1  -3.208830348105249E-1   3.113462137505492E-1  
 2.000000000000000E9     3.946094436352983E-1   2.623796124036615E-2   1.111058894615558E-1   6.828444540801067E-1   3.311245014813302E-2   6.581382676636877E-1   4.437853670053784E-1  -1.819488599472758E-1  
 2.050000000000000E9    -4.837043592090719E-1  -1.663853781742020E-1   6.857343755903542E-1  -2.493508876384616E-1  -3.623753156611654E-1  -5.412969601937956E-1  -5.325596677651968E-1  -1.044756919904246E-1  
 2.100000000000000E9     2.283401502886148E-1   4.147550002705360E-1  -3.559998070274550E-1  -5.617860504548370E-1   4.649452423460144E-1   5.496636497468193E-1   2.756610148659459E-1   3.538343965672576E-1  
 2.150000000000000E9     5.691392356733336E-2  -4.854834956141471E-1  -3.244504563676289E-1   5.997812500249125E-1  -4.941715666809597E-1  -4.860541215844927E-1  -7.106930022294060E-2  -4.231693043211181E-1  
 2.200000000000000E9    -2.193215996489603E-1   2.976981035851835E-1   6.853629313208883E-1   3.493085240039536E-1   6.148341318762809E-1   4.129335125448562E-1  -5.345575268564126E-2   3.979545336285482E-1  
 2.250000000000000E9     4.273427157154709E-1  -2.859579893529471E-1   4.545816196842056E-2  -6.660251544724452E-1  -6.567502268996324E-1  -1.363320710696127E-1   3.009176587579298E-1  -3.923874473289967E-1  
 2.300000000000000E9    -3.983545982395315E-1  -1.446397352400388E-1  -6.672366190004747E-1   1.005785754914033E-1   6.722953898063860E-1   2.462950433161019E-2  -4.544612660018125E-1   5.272324820808459E-2  
 2.350000000000000E9     2.818457041023787E-1   2.226965398187912E-1   3.861200400136374E-1   6.746285623050904E-1  -7.222770801602769E-1   1.205159855458620E-1   3.519864120902375E-1   1.438712327875009E-1  
 2.400000000000000E9    -1.578794663736360E-1  -4.402702462154059E-1   5.482837586825287E-1  -3.931724283116606E-1   7.030064297870050E-1  -2.481990431456750E-1  -2.902904837219004E-1  -2.691104072585504E-1  
 2.450000000000000E9    -8.113669823088600E-2   3.840530136358806E-1  -6.165445580668074E-1  -3.463512830839454E-1  -3.940334007607635E-1   5.946770356698597E-1   1.639222214210756E-1   2.900675553532884E-1  
 2.500000000000000E9     1.758168293657728E-1  -3.337886899778726E-1  -2.189890946989180E-1   7.176956170263524E-1   2.416447532602059E-1  -6.286184519097752E-1   3.963014647385671E-2  -4.616631635703299E-1  
 2.550000000000000E9    -3.004535935161544E-1   1.144316441634724E-1   7.382124353321456E-1   7.035666956366232E-2  -1.868146016995597E-1   7.235431296116766E-1  -3.003175434875317E-1   2.141012711761429E-1  
 2.600000000000000E9     4.291111956806695E-1   2.978100812582976E-3  -2.341520816708710E-1  -6.136856105899960E-1  -3.182973931082984E-2  -6.959368753924394E-1   3.202310683546177E-1  -1.192538060967110E-1  
 2.650000000000000E9    -1.974980913494966E-1  -2.756257289108223E-1  -6.739739743540200E-1   4.024838569458730E-1   4.328904781270488E-1   6.462134189762300E-1  -2.468636677756272E-1   1.584969492208213E-2  
 2.700000000000000E9     2.271200440585848E-1   1.904725799554596E-1   4.864590791548431E-1   5.362192463257406E-1  -5.320305405507668E-1  -4.758074857162429E-1   3.883737593310402E-1   1.203889549534790E-1  
 2.750000000000000E9     3.254538621705616E-2  -3.979974112839735E-1   2.863408361815795E-1  -6.325495848749411E-1   5.300452609323453E-1   4.209885601636389E-1  -7.875097287696392E-2  -3.489310654822552E-1  
 2.800000000000000E9    -2.386032715360596E-1   1.809835146302334E-1  -7.582564753370488E-1  -1.067773513501834E-1  -6.473263169707552E-1  -4.117588487975972E-1  -4.986941026535804E-2   2.949855991457840E-1  
 2.850000000000000E9     2.240802120886600E-1  -1.448429475950706E-1   3.044984280397855E-2   7.281309581148197E-1   7.305046697480364E-1   4.147265874262231E-2   1.344352908130980E-1  -2.246669673585322E-1  
 2.900000000000000E9    -3.348455740280153E-1   3.761351022762985E-2   6.875437540573799E-1  -2.647097202097204E-1  -6.698634444940813E-1   2.922539805164352E-1  -2.140696320759364E-1   1.880338952706881E-1  
 2.950000000000000E9     2.741737810299275E-1   1.633476475258697E-1  -4.584400324543698E-1  -5.678084673594102E-1   5.987424669374619E-1  -4.025333566952448E-1   2.874839839877571E-1  -7.153446211077595E-2  
 3.000000000000000E9    -8.111073269928773E-2  -2.255098775979389E-1  -4.402272007905838E-1   5.959520797186968E-1  -4.872273876625949E-1   5.344371215632067E-1  -2.945639318218622E-1  -1.615246754524854E-1  
 3.050000000000000E9     1.191244731316086E-1   2.651850194837209E-1   6.838787370061659E-1   2.299366885284220E-1   1.974167261863890E-1  -6.790161444821270E-1   1.873528721103634E-1   1.937446246677084E-1  
 3.100000000000000E9     1.801670725580697E-1  -2.978741483889542E-1   8.255086640146842E-2  -7.247256712319207E-1   1.553982939069810E-1   7.433243570994158E-1  -1.937841123127404E-2  -2.379592788237567E-1  
 3.150000000000000E9    -1.455976868137324E-1   1.519997392154027E-1  -7.074031276949565E-1   1.527649478493391E-1  -1.240795753418596E-1  -7.228142082846298E-1   3.183818320930604E-2   2.755773813790903E-1  
 3.200000000000000E9     3.018068558019774E-1  -1.698051713683387E-2   3.700644728746644E-1   6.333972649790652E-1   2.035399833879816E-1   6.464214976462471E-1   2.687870541328770E-1  -1.840809601158945E-1  
 3.250000000000000E9    -2.402589148023555E-1  -6.604918969682651E-2   5.294238629968094E-1  -5.000150426812651E-1  -4.669732021579348E-1  -5.496725049163538E-1  -2.730393493010626E-1   9.099968328326680E-2  
 3.300000000000000E9     2.006971427853703E-1   2.434718282447897E-1  -6.073223456630150E-1  -3.457748435975059E-1   6.926736170766737E-1   2.333891525793936E-1   2.355427203731441E-1   1.130359714884082E-1  
 3.350000000000000E9    -3.228231070722185E-2  -1.857240385203874E-1  -1.867680352899369E-1   7.193904075980672E-1  -6.950889943782380E-1  -1.475643193152454E-1  -1.733294977115503E-1  -7.131974869551583E-2  
 3.400000000000000E9    -4.709123079677133E-2   3.050218305110731E-1   7.267904284736650E-1  -2.865139480584079E-3   7.113497362855160E-1   1.358053563778578E-1   1.546718839991514E-1   2.954887338311711E-1  
 3.450000000000000E9     2.743305122883467E-1  -1.164025313451517E-1  -2.495826672165606E-1  -6.361187113272332E-1  -6.727255504450120E-1   1.032515932296386E-1   1.058058843418263E-1  -2.648068598036912E-1  
 3.500000000000000E9    -1.475665560563328E-1   6.914094516596668E-2  -6.398227597665595E-1   4.100940870248443E-1   5.290962946838634E-1  -4.952916919967599E-1  -1.240438016372492E-1   1.841757638198425E-1  
 3.550000000000000E9     2.982499549157258E-1   4.310297191179709E-2   5.201443547372581E-1   4.879198494847099E-1  -4.441476562922375E-1   5.784571876912544E-1   2.236543445731809E-1  -5.243164511556150E-2  
 3.600000000000000E9    -1.319406379510251E-1  -1.438473760114609E-1   2.958814934662590E-1  -6.528958078632888E-1   3.900706054280514E-1  -6.261414782644933E-1  -1.971882145457023E-1   5.696265689702812E-2  
 3.650000000000000E9     8.314104796149653E-2   2.717434306013288E-1  -7.266173204750844E-1  -5.172509690133072E-2  -8.440946736217583E-2   6.741474537834233E-1   2.482152852157070E-1   1.981256062551932E-1  
 3.700000000000000E9     3.194882906527961E-2  -8.141448651362354E-2   8.594167188526648E-2   7.559158169698322E-1  -3.112056549189687E-1  -6.805505282515091E-1  -5.640036273387777E-2  -1.055994365055871E-1  
 3.750000000000000E9    -4.485493082125891E-2   2.942449315793601E-1   6.391660754184759E-1  -2.561122296983004E-1   4.165785026442224E-1   5.770751866402603E-1  -2.011728947976938E-2   2.772963332497508E-1  
 3.800000000000000E9     1.960353691212767E-1   8.324235445552636E-2  -5.156962017601584E-1  -5.449006129038559E-1  -4.292294671384908E-1  -5.984803814216022E-1   8.037224869417703E-2  -1.789162871618560E-2  
 3.850000000000000E9    -1.051626940961297E-1   1.088780273999171E-1  -4.093364702056985E-1   6.266224322220815E-1   6.188249993213228E-1   3.970602544050238E-1  -1.252402646286469E-1   1.824460313970340E-1  
 3.900000000000000E9     1.708544358218708E-1   1.474917619801859E-1   6.820922449441237E-1   2.159301730213512E-1  -7.242017347585508E-1  -5.627377942946667E-2   1.477782062215167E-1   4.231285181302397E-2  
 3.950000000000000E9    -2.280267500445694E-2  -6.464289003636063E-2   6.092947810405880E-3  -7.428798489531824E-1   7.069766199816437E-1  -1.249566777130347E-1  -1.383071211593696E-1  -5.316788744750293E-2  
 4.000000000000000E9    -1.263037107459047E-2   8.384957245483769E-2  -7.145693887139036E-1   2.019759159133470E-1  -7.318576216787748E-1   1.194747773438805E-1  -4.435788303391315E-2   1.042420142734347E-1  
 4.050000000000000E9    -4.329714761670342E-4  -6.517201224910031E-2   3.844562797095539E-1   6.078790675690705E-1   6.398044184835489E-1  -3.677492054204134E-1  -2.784371713890282E-2  -2.646539749529700E-2  
 4.100000000000000E9    -8.076340635383142E-2   5.553191077537933E-2   4.853049707160542E-1  -5.567094385371125E-1  -3.631540453159594E-1   6.422962815696017E-1  -2.741963898735114E-2   7.962314384213703E-2  
 4.150000000000000E9    -8.837565626497752E-3   6.617971451907188E-2  -6.585059596634537E-1  -3.157446423396621E-1   2.134817911572260E-1  -7.107732606514295E-1   7.241067078794683E-2   3.753553362346509E-2  
 4.200000000000000E9    -2.367357653593503E-3   1.059484071475194E-1  -1.101537582750546E-1   7.220938213088913E-1  -2.072486629828977E-1   7.009820310755658E-1  -2.899314267395016E-3   1.259614941145740E-4  
 4.250000000000000E9    -1.419745693719223E-2   8.072959595643640E-2   7.230626263873303E-1  -1.000600742422948E-1  -6.263982724019608E-2  -7.313357790117072E-1  -9.009955489890340E-2   1.262533265439902E-1  
 4.300000000000000E9     5.708708534911758E-3   1.575908081683938E-1  -2.988424084550158E-1  -6.453435533838018E-1   4.009422475918055E-1   5.879345185149139E-1   2.555954889610810E-2   1.352103393772929E-1  
 4.350000000000000E9     1.510009877777367E-2  -9.092674563718877E-3  -5.448474389218757E-1   4.744473625098876E-1  -5.402505991996407E-1  -4.793560110565576E-1  -1.066957772176770E-1   3.302409780606717E-2  
 4.400000000000000E9    -1.161881180751399E-1   7.857437961703633E-2   5.966281057210939E-1   3.850500847970315E-1   5.351531664738443E-1   4.965111491285401E-1  -4.765432528242014E-2   1.304901898639867E-1  
 4.450000000000000E9     8.888746749062772E-2  -3.849022560772006E-2   2.117460805245980E-1  -6.688438697332556E-1  -6.235965214033883E-1  -3.117371342473264E-1   1.872210969532048E-2  -1.311069114491406E-1  
 4.500000000000000E9    -1.925438896126461E-1  -8.407673721430571E-2  -7.026893905325448E-1   1.513280106404004E-2   7.079138681694305E-1  -2.761762182860159E-3  -1.608077436644645E-1   1.028933811187613E-1  
 4.550000000000000E9     7.980046055516782E-2   1.210611166903128E-1   1.941529960889606E-1   6.639870742625341E-1  -6.752872937766635E-1   1.770274318223242E-1   1.872676989865437E-1   5.098960057987990E-2  
 4.600000000000000E9    -7.145074528219805E-2  -1.425230373698695E-1   5.708023262137881E-1  -3.905424574313924E-1   6.711908911300409E-1  -2.369692717683533E-1  -1.345690806150177E-1  -5.780408996154340E-2  
 4.650000000000000E9    -1.321173602216682E-1   2.598017553238320E-1  -4.938224953224656E-1  -4.820260390155066E-1  -5.433878134602241E-1   3.954992100420353E-1   1.019260778201570E-1   2.164234201766107E-1  
 4.700000000000000E9     1.296756731274238E-1  -1.006178589837309E-1  -2.542541172349274E-1   6.145360452045525E-1   3.561637231981168E-1  -5.953895283843770E-1  -6.348711460544745E-2  -2.210395977762574E-1  
 4.750000000000000E9    -2.702679763865869E-1   9.863344435651822E-2   6.605918726771363E-1   8.829627156980846E-2  -1.833936154642621E-1   6.284504844097130E-1  -2.136492774621455E-1   2.052777050839766E-1  
